# MHz S MA R 50
!   freq        S11       
0.050000  0.99982   -0.23
1.049900  1.00177   -3.76
2.049800  1.00091   -7.46
3.049700  0.99961  -11.05
4.049600  1.00151  -14.67
5.049500  1.00042  -18.16
6.049400  0.99983  -21.64
7.049300  1.00104  -25.19
8.049200  1.00180  -28.51
9.049100  1.00125  -31.92
10.049000  1.00061  -35.33
11.048900  1.00251  -38.61
12.048800  1.00252  -41.73
13.048700  1.00100  -44.92
14.048600  1.00188  -48.00
15.048500  1.00292  -51.00
16.048400  1.00351  -53.94
17.048300  1.00512  -56.86
18.048200  1.00364  -59.54
19.048100  1.00313  -62.27
20.048000  1.00383  -64.98
21.047900  1.00512  -67.47
22.047800  1.00518  -70.03
23.047700  1.00626  -72.44
24.047600  1.00534  -74.86
25.047500  1.00536  -77.18
26.047400  1.00622  -79.33
27.047300  1.00618  -81.42
28.047200  1.00657  -83.54
29.047100  1.00707  -85.65
30.047000  1.00643  -87.59
31.046900  1.00868  -89.52
32.046800  1.00819  -91.38
33.046700  1.00708  -93.19
34.046600  1.00684  -94.89
35.046500  1.00841  -96.65
36.046400  1.00836  -98.32
37.046300  1.00773  -99.86
38.046200  1.01001 -101.38
39.046100  1.00900 -102.93
40.046000  1.00967 -104.38
41.045900  1.00916 -105.82
42.045800  1.01022 -107.19
43.045700  1.00969 -108.55
44.045600  1.00931 -109.78
45.045500  1.01104 -111.06
46.045400  1.00989 -112.16
47.045300  1.01003 -113.40
48.045200  1.00972 -114.60
49.045100  1.01074 -115.70
50.045000  1.01077 -116.84
51.044900  1.00984 -117.81
52.044800  1.01000 -118.98
53.044700  1.01120 -119.97
54.044600  1.01289 -120.97
55.044500  1.01066 -121.95
56.044400  1.01158 -122.84
57.044300  1.01216 -123.87
58.044200  1.01104 -124.67
59.044100  1.01184 -125.52
60.044000  1.01305 -126.28
61.043900  1.01186 -127.16
62.043800  1.01167 -127.98
63.043700  1.01173 -128.72
64.043600  1.01245 -129.56
65.043500  1.01273 -130.23
66.043400  1.01435 -131.02
67.043300  1.01386 -131.75
68.043200  1.01344 -132.37
69.043100  1.01367 -133.04
70.043000  1.01244 -133.62
71.042900  1.01305 -134.44
72.042800  1.01350 -134.90
73.042700  1.01317 -135.62
74.042600  1.01304 -136.23
75.042500  1.01435 -136.87
76.042400  1.01396 -137.34
77.042300  1.01315 -137.86
78.042200  1.01538 -138.54
79.042100  1.01284 -138.99
80.042000  1.01511 -139.57
81.041900  1.01388 -140.08
82.041800  1.01626 -140.64
83.041700  1.01269 -141.10
84.041600  1.01153 -141.67
85.041500  1.01391 -142.08
86.041400  1.01387 -142.59
87.041300  1.01399 -143.17
88.041200  1.01265 -143.57
89.041100  1.01177 -143.98
90.041000  1.01399 -144.43
91.040900  1.01358 -144.81
92.040800  1.01311 -145.33
93.040700  1.01367 -145.70
94.040600  1.01291 -146.14
95.040500  1.01235 -146.55
96.040400  1.01187 -146.94
97.040300  1.01223 -147.32
98.040200  1.01289 -147.72
99.040100  1.01267 -148.18
100.040000  1.01512 -148.42
101.039900  1.01170 -148.82
102.039800  1.01411 -149.18
103.039700  1.01244 -149.54
104.039600  1.01292 -149.94
105.039500  1.01405 -150.29
106.039400  1.01277 -150.59
107.039300  1.01226 -150.92
108.039200  1.01441 -151.27
109.039100  1.01342 -151.59
110.039000  1.01036 -151.93
111.038900  1.01333 -152.17
112.038800  1.01375 -152.52
113.038700  1.01234 -152.82
114.038600  1.01369 -153.09
115.038500  1.01084 -153.37
116.038400  1.01287 -153.77
117.038300  1.01068 -154.07
118.038200  1.01018 -154.32
119.038100  1.01419 -154.53
120.038000  1.01150 -154.74
121.037900  1.01108 -155.14
122.037800  1.00936 -155.44
123.037700  1.00972 -155.75
124.037600  1.00925 -155.88
125.037500  1.01083 -156.27
126.037400  1.01136 -156.45
127.037300  1.01180 -156.72
128.037200  1.01159 -156.98
129.037100  1.01076 -157.26
130.037000  1.01130 -157.45
131.036900  1.01072 -157.67
132.036800  1.01024 -157.96
133.036700  1.00956 -158.22
134.036600  1.00927 -158.39
135.036500  1.00881 -158.65
136.036400  1.00811 -158.88
137.036300  1.00839 -159.05
138.036200  1.01075 -159.29
139.036100  1.00841 -159.44
140.036000  1.00902 -159.81
141.035900  1.00866 -160.09
142.035800  1.00789 -160.22
143.035700  1.00831 -160.43
144.035600  1.00768 -160.66
145.035500  1.00823 -160.87
146.035400  1.00660 -161.07
147.035300  1.00841 -161.27
148.035200  1.00785 -161.52
149.035100  1.00728 -161.64
150.035000  1.00681 -161.85
151.034900  1.00632 -162.10
152.034800  1.00578 -162.22
153.034700  1.00796 -162.50
154.034600  1.00653 -162.59
155.034500  1.00606 -162.74
156.034400  1.00737 -163.02
157.034300  1.00677 -163.22
158.034200  1.00635 -163.41
159.034100  1.00618 -163.59
160.034000  1.00555 -163.68
161.033900  1.00635 -163.99
162.033800  1.00640 -164.08
163.033700  1.00490 -164.29
164.033600  1.00690 -164.44
165.033500  1.00633 -164.71
166.033400  1.00635 -164.77
167.033300  1.00576 -165.00
168.033200  1.00573 -165.10
169.033100  1.00688 -165.29
170.033000  1.00631 -165.43
171.032900  1.00528 -165.60
172.032800  1.00393 -165.75
173.032700  1.00594 -165.91
174.032600  1.00476 -166.10
175.032500  1.00412 -166.19
176.032400  1.00505 -166.44
177.032300  1.00632 -166.55
178.032200  1.00466 -166.66
179.032100  1.00496 -166.85
180.032000  1.00349 -166.94
181.031900  1.00470 -167.13
182.031800  1.00404 -167.28
183.031700  1.00511 -167.45
184.031600  1.00479 -167.61
185.031500  1.00412 -167.68
186.031400  1.00367 -167.88
187.031300  1.00364 -167.94
188.031200  1.00422 -168.14
189.031100  1.00360 -168.25
190.031000  1.00338 -168.44
191.030900  1.00453 -168.61
192.030800  1.00352 -168.67
193.030700  1.00428 -168.88
194.030600  1.00475 -169.03
195.030500  1.00453 -169.16
196.030400  1.00326 -169.17
197.030300  1.00428 -169.35
198.030200  1.00421 -169.56
199.030100  1.00290 -169.68
200.030000  1.00307 -169.78
201.029900  1.00382 -169.92
202.029800  1.00338 -170.05
203.029700  1.00309 -170.15
204.029600  1.00310 -170.24
205.029500  1.00270 -170.42
206.029400  1.00355 -170.56
207.029300  1.00334 -170.70
208.029200  1.00361 -170.74
209.029100  1.00345 -170.83
210.029000  1.00180 -171.01
211.028900  1.00160 -171.13
212.028800  1.00240 -171.20
213.028700  1.00261 -171.37
214.028600  1.00298 -171.50
215.028500  1.00269 -171.58
216.028400  1.00201 -171.80
217.028300  1.00248 -171.85
218.028200  1.00232 -171.96
219.028100  1.00133 -172.09
220.028000  1.00183 -172.23
221.027900  1.00132 -172.30
222.027800  1.00173 -172.41
223.027700  1.00151 -172.53
224.027600  1.00222 -172.63
225.027500  1.00055 -172.71
226.027400  1.00166 -172.87
227.027300  1.00099 -172.90
228.027200  0.99990 -172.99
229.027100  1.00106 -173.18
230.027000  0.99988 -173.27
231.026900  1.00094 -173.34
232.026800  1.00061 -173.41
233.026700  1.00021 -173.56
234.026600  0.99987 -173.74
235.026500  0.99963 -173.82
236.026400  1.00067 -173.92
237.026300  1.00020 -173.96
238.026200  0.99950 -174.08
239.026100  1.00083 -174.16
240.026000  1.00162 -174.30
241.025900  1.00041 -174.44
242.025800  0.99787 -174.45
243.025700  0.99933 -174.56
244.025600  1.00112 -174.68
245.025500  1.00149 -174.84
246.025400  0.99996 -174.98
247.025300  0.99906 -174.97
248.025200  0.99810 -175.10
249.025100  0.99714 -175.16
250.025000  1.00039 -175.30
251.024900  1.00025 -175.40
252.024800  0.99950 -175.52
253.024700  0.99683 -175.55
254.024600  0.99853 -175.71
255.024500  0.99864 -175.75
256.024400  0.99958 -175.91
257.024300  0.99865 -175.88
258.024200  0.99827 -176.04
259.024100  0.99816 -176.14
260.024000  0.99825 -176.26
261.023900  0.99738 -176.31
262.023800  0.99782 -176.38
263.023700  0.99714 -176.50
264.023600  0.99745 -176.63
265.023500  0.99781 -176.72
266.023400  0.99770 -176.76
267.023300  0.99791 -176.87
268.023200  0.99667 -176.96
269.023100  0.99729 -177.06
270.023000  0.99676 -177.09
271.022900  0.99600 -177.22
272.022800  0.99820 -177.33
273.022700  0.99805 -177.41
274.022600  0.99695 -177.50
275.022500  0.99594 -177.60
276.022400  0.99586 -177.71
277.022300  0.99596 -177.76
278.022200  0.99456 -177.84
279.022100  0.99578 -177.90
280.022000  0.99589 -178.01
281.021900  0.99553 -178.05
282.021800  0.99455 -178.20
283.021700  0.99512 -178.26
284.021600  0.99706 -178.30
285.021500  0.99507 -178.41
286.021400  0.99450 -178.55
287.021300  0.99501 -178.61
288.021200  0.99469 -178.49
289.021100  0.99499 -178.77
290.021000  0.99530 -178.80
291.020900  0.99506 -178.94
292.020800  0.99439 -179.03
293.020700  0.99367 -179.12
294.020600  0.99377 -179.13
295.020500  0.99450 -179.25
296.020400  0.99388 -179.34
297.020300  0.99259 -179.38
298.020200  0.99081 -179.44
299.020100  0.99228 -179.54
300.020000  0.99284 -179.65
301.019900  0.99233 -179.61
302.019800  0.99468 -179.73
303.019700  0.99251 -179.91
304.019600  0.99439 -179.93
305.019500  0.99256  179.97
306.019400  0.99273  179.93
307.019300  0.99242  179.93
308.019200  0.99248  179.73
309.019100  0.99213  179.69
310.019000  0.99116  179.58
311.018900  0.99103  179.55
312.018800  0.99200  179.47
313.018700  0.99190  179.39
314.018600  0.99117  179.26
315.018500  0.99123  179.16
316.018400  0.99153  179.22
317.018300  0.99159  179.01
318.018200  0.99089  178.96
319.018100  0.99050  178.99
320.018000  0.99182  178.83
321.017900  0.98978  178.82
322.017800  0.99070  178.67
323.017700  0.99029  178.62
324.017600  0.98940  178.58
325.017500  0.98913  178.49
326.017400  0.98959  178.42
327.017300  0.98850  178.32
328.017200  0.99029  178.25
329.017100  0.98956  178.24
330.017000  0.98958  178.14
331.016900  0.98901  178.07
332.016800  0.98803  178.02
333.016700  0.98766  177.91
334.016600  0.98842  177.86
335.016500  0.98728  177.79
336.016400  0.98745  177.39
337.016300  0.98763  177.63
338.016200  0.98809  177.61
339.016100  0.98710  177.55
340.016000  0.98780  177.42
341.015900  0.98737  177.37
342.015800  0.98745  177.31
343.015700  0.98653  177.19
344.015600  0.98711  177.18
345.015500  0.98708  177.15
346.015400  0.98850  176.98
347.015300  0.98680  176.94
348.015200  0.98633  176.90
349.015100  0.98520  176.84
350.015000  0.98614  176.64
351.014900  0.98636  176.71
352.014800  0.98540  176.62
353.014700  0.98679  176.46
354.014600  0.98550  176.51
355.014500  0.98480  176.48
356.014400  0.98480  176.36
357.014300  0.98665  176.23
358.014200  0.98539  176.23
359.014100  0.98505  176.21
360.014000  0.98351  175.81
361.013900  0.98573  176.03
362.013800  0.98513  175.99
363.013700  0.98429  175.93
364.013600  0.98616  175.87
365.013500  0.98475  175.74
366.013400  0.98473  175.73
367.013300  0.98398  175.61
368.013200  0.98403  175.58
369.013100  0.98475  175.51
370.013000  0.98332  175.42
371.012900  0.98307  175.33
372.012800  0.98352  175.31
373.012700  0.98294  175.26
374.012600  0.98267  175.16
375.012500  0.98254  175.09
376.012400  0.98279  175.06
377.012300  0.98212  175.01
378.012200  0.98280  174.89
379.012100  0.98135  174.97
380.012000  0.98218  174.82
381.011900  0.98214  174.73
382.011800  0.98267  174.71
383.011700  0.98125  174.59
384.011600  0.98168  174.49
385.011500  0.98084  174.48
386.011400  0.98054  174.41
387.011300  0.97954  174.33
388.011200  0.98095  174.31
389.011100  0.98032  174.23
390.011000  0.98071  174.18
391.010900  0.97966  174.11
392.010800  0.97974  174.05
393.010700  0.97922  173.95
394.010600  0.97919  173.91
395.010500  0.97884  173.92
396.010400  0.97934  173.83
397.010300  0.97966  173.79
398.010200  0.97926  173.69
399.010100  0.97879  173.65
400.010000  0.97866  173.62
401.009900  0.97844  173.53
402.009800  0.97893  173.48
403.009700  0.97840  173.37
404.009600  0.97868  173.34
405.009500  0.97899  173.25
406.009400  0.97776  173.21
407.009300  0.97772  173.18
408.009200  0.97631  173.15
409.009100  0.97702  173.05
410.009000  0.97659  172.99
411.008900  0.97695  172.89
412.008800  0.97673  172.92
413.008700  0.97641  172.84
414.008600  0.97721  172.68
415.008500  0.97665  172.69
416.008400  0.97651  172.57
417.008300  0.97572  172.55
418.008200  0.97610  172.43
419.008100  0.97619  172.44
420.008000  0.97548  172.38
421.007900  0.97461  172.39
422.007800  0.97523  172.28
423.007700  0.97512  172.21
424.007600  0.97489  172.15
425.007500  0.97521  172.04
426.007400  0.97513  172.05
427.007300  0.97388  172.00
428.007200  0.97511  171.92
429.007100  0.97293  171.80
430.007000  0.97294  171.85
431.006900  0.97534  171.72
432.006800  0.97294  171.69
433.006700  0.97336  171.66
434.006600  0.97358  171.56
435.006500  0.97347  171.40
436.006400  0.97355  171.41
437.006300  0.97235  171.43
438.006200  0.97195  171.38
439.006100  0.97224  171.29
440.006000  0.97276  171.18
441.005900  0.97167  171.19
442.005800  0.97097  171.11
443.005700  0.97142  171.05
444.005600  0.97151  170.99
445.005500  0.97131  170.98
446.005400  0.97095  170.89
447.005300  0.97080  170.85
448.005200  0.97152  170.74
449.005100  0.97016  170.70
450.005000  0.96996  170.66
451.004900  0.97030  170.59
452.004800  0.97046  170.53
453.004700  0.97016  170.48
454.004600  0.96977  170.45
455.004500  0.96943  170.35
456.004400  0.96934  170.35
457.004300  0.96946  170.31
458.004200  0.96857  170.26
459.004100  0.96911  170.17
460.004000  0.96847  170.16
461.003900  0.96882  170.03
462.003800  0.96810  170.09
463.003700  0.96875  169.94
464.003600  0.96828  169.76
465.003500  0.96775  169.87
466.003400  0.96857  169.80
467.003300  0.96811  169.79
468.003200  0.96770  169.72
469.003100  0.96809  169.68
470.003000  0.96840  169.56
471.002900  0.96695  169.59
472.002800  0.96746  169.48
473.002700  0.96692  169.39
474.002600  0.96764  169.38
475.002500  0.96704  169.30
476.002400  0.96541  169.30
477.002300  0.96662  169.21
478.002200  0.96584  169.17
479.002100  0.96608  169.08
480.002000  0.96658  169.12
481.001900  0.96580  168.97
482.001800  0.96543  168.93
483.001700  0.96492  168.82
484.001600  0.96605  168.81
485.001500  0.96602  168.83
486.001400  0.96402  168.71
487.001300  0.96462  168.69
488.001200  0.96435  168.65
489.001100  0.96358  168.55
490.001000  0.96354  168.52
491.000900  0.96375  168.52
492.000800  0.96316  168.39
493.000700  0.96318  168.31
494.000600  0.96255  168.32
495.000500  0.96270  168.29
496.000400  0.96276  168.21
497.000300  0.96281  168.13
498.000200  0.96336  168.10
499.000100  0.96145  168.09
500.000000  0.96202  168.01
