!Created with skrf (http://scikit-rf.org).
# MHz S MA R 50.0 
!freq magS11 angS11
0.05 0.9999999860838916 -0.17999985682029826
1.0499 0.9999938706910565 -3.7783152353042038
2.0498 0.999976706281578 -7.369438722387496
3.0497 0.9999486902218807 -10.946604361593716
4.0496 0.9999101408683173 -14.503205283263654
5.0495 0.9998614886394133 -18.032865599023605
6.0494 0.9998032642512011 -21.52950591771427
7.0493 0.9997360847021084 -24.987400914526102
8.0492 0.9996606376740178 -28.401227771288468
9.0491 0.9995776650473552 -31.766104726365153
10.049 0.9994879462122485 -35.07761939783618
11.0489 0.9993922818010861 -38.33184694649755
12.0488 0.99929147837944 -41.5253585033387
13.0487 0.9991863345231196 -44.655220583404024
14.0486 0.9990776285901583 -47.71898643489725
15.0485 0.9989661083778464 -50.71468042614028
16.0484 0.9988524827447528 -53.64077665626921
17.0483 0.9987374151819637 -56.496172995420515
18.0482 0.9986215192400486 -59.28016172663175
19.0481 0.9985053556599603 -61.992397886268634
20.048 0.998389431016755 -64.63286629431578
21.0479 0.998274197662945 -67.20184814147616
22.0478 0.9981600547509227 -69.69988786655169
23.0477 0.99804735011824 -72.12776092314535
24.0476 0.9979363828325819 -74.48644290562629
25.0475 0.9978274062122332 -76.77708038502747
26.0474 0.9977206311602417 -79.00096369898098
27.0473 0.9976162296743378 -81.15950184745203
28.0472 0.997514338418428 -83.2541995683238
29.0471 0.9974150622640193 -85.28663660341766
30.047 0.9973184777305303 -87.25844911533491
31.0469 0.9972246362716745 -89.17131317725719
32.0468 0.9971335673707842 -91.02693023003431
33.0467 0.997045281421105 -92.82701438196378
34.0466 0.9969597723778276 -94.57328141510419
35.0465 0.996877020177193 -96.26743935635906
36.0464 0.9967969929246145 -97.9111804706399
37.0463 0.9967196488587154 -99.50617453606549
38.0462 0.9966449381017206 -101.0540632664243
39.0461 0.9965728042090286 -102.55645575323783
40.046 0.9965031855322553 -104.0149248080654
41.0459 0.9964360164107553 -105.4310040946777
42.0458 0.9963712282068072 -106.8061859499966
43.0457 0.996308750199385 -108.1419198019495
44.0456 0.996248510350893 -109.4396111013949
45.0455 0.9961904359604714 -110.70062069388818
46.0454 0.9961344542166058 -111.9262645651613
47.0453 0.9960804926607918 -113.11781390173186
48.0452 0.9960284795730322 -114.27649541499915
49.0451 0.9959783442889512 -115.40349188352022
50.045 0.9959300174573579 -116.49994287390055
51.0449 0.9958834312461765 -117.56694560590027
52.0448 0.9958385195038139 -118.6055559319822
53.0447 0.9957952178822324 -119.61678940564516
54.0446 0.9957534639272794 -120.60162241653552
55.0445 0.9957131971411505 -121.56099337355208
56.0444 0.99567435902127 -122.4958039199896
57.0443 0.9956368930793332 -123.40692016724849
58.0442 0.9956007448437649 -124.29517393580221
59.0441 0.9955658618484294 -125.1613639939989
60.044 0.9955321936100376 -126.00625728690594
61.0439 0.9954996915963648 -126.83059014882024
62.0438 0.995468309187094 -127.6350694942817
63.0437 0.9954380016288403 -128.4203739834735
64.0436 0.9954087259856883 -129.1871551587861
65.0435 0.9953804410863646 -129.93603855008433
66.0434 0.9953531074690097 -130.66762474686422
67.0433 0.9953266873243511 -131.38249043603423
68.0432 0.9953011444379549 -132.08118940451473
69.0431 0.9952764441321204 -132.7642535062364
70.043 0.9952525532078834 -133.43219359343885
71.0429 0.9952294398875138 -134.0855004124346
72.0428 0.995207073757816 -134.72464546422137
73.0427 0.9951854257144872 -135.3500818305011
74.0426 0.9951644679077286 -135.96224496580422
75.0425 0.995144173689266 -136.5615534565286
76.0424 0.9951245175608944 -137.14840974778727
77.0423 0.9951054751246343 -137.72320083902315
78.0422 0.9950870230345539 -138.28629894939314
79.0421 0.9950691389502955 -138.83806215395532
80.042 0.995051801492323 -139.3788349917084
81.0419 0.9950349901988897 -139.90894904654144
82.0418 0.9950186854847197 -140.42872350214716
83.0417 0.9950028686013755 -140.9384656719448
84.0416 0.9949875215992872 -141.4384715050424
85.0415 0.9949726272914052 -141.92902606924838
86.0414 0.9949581692184342 -142.41040401211944
87.0413 0.9949441316156036 -142.88287000100522
88.0412 0.9949304993809279 -143.34667914302076
89.0411 0.9949172580449038 -143.8020773858498
90.041 0.9949043937415937 -144.24930190024853
91.0409 0.9948918931810474 -144.68858144508982
92.0408 0.9948797436230017 -145.12013671575428
93.0407 0.9948679328518143 -145.5441806766439
94.0406 0.9948564491525754 -145.96091887856147
95.0405 0.9948452812883496 -146.3705497616679
96.0404 0.9948344184784932 -146.77326494469924
97.0403 0.9948238503780082 -147.16924950109438
98.0402 0.994813567057878 -147.5586822226566
99.0401 0.9948035589863415 -147.9417358713418
100.04 0.9947938170110647 -148.31857741974073
101.0399 0.9947843323421641 -148.68936828079583
102.0398 0.9947750965360448 -149.05426452726553
103.0397 0.9947661014800091 -149.41341710142825
104.0396 0.994757339377605 -149.76697201549115
105.0395 0.9947488027346736 -150.1150705431484
106.0394 0.9947404843460638 -150.4578494027115
107.0393 0.9947323772829788 -150.79544093221304
108.0392 0.9947244748809292 -151.12797325686657
109.0391 0.9947167707282543 -151.45557044924573
110.039 0.9947092586551917 -151.77835268252804
111.0389 0.9947019327234624 -152.0964363771317
112.0388 0.9946947872163482 -152.4099343410579
113.0387 0.9946878166292379 -152.7189559042345
114.0386 0.9946810156606146 -153.02360704714363
115.0385 0.9946743792034675 -153.32399052400103
116.0384 0.9946679023371057 -153.62020598074136
117.0383 0.9946615803193495 -153.91235006805192
118.0382 0.9946554085790874 -154.20051654968407
119.0381 0.9946493827091757 -154.48479640626198
120.038 0.9946434984596668 -154.7652779347951
121.0379 0.9946377517313446 -155.04204684409294
122.0378 0.994632138569561 -155.31518634626906
123.0377 0.9946266551583505 -155.5847772445134
124.0376 0.9946212978148096 -155.85089801730174
125.0375 0.9946160629837367 -156.11362489920484
126.0374 0.994610947232508 -156.37303195844902
127.0373 0.994605947246184 -156.629191171376
128.0372 0.9946010598228389 -156.88217249393904
129.0371 0.9945962818690918 -157.1320439303688
130.037 0.994591610395841 -157.37887159913382
131.0369 0.9945870425141835 -157.62271979631498
132.0368 0.9945825754315162 -157.86365105650887
133.0367 0.9945782064478036 -158.10172621136704
134.0366 0.9945739329520138 -158.33700444587524
135.0365 0.9945697524187058 -158.56954335247025
136.0364 0.9945656624047623 -158.79939898308845
137.0363 0.9945616605462685 -159.02662589923457
138.0362 0.9945577445555183 -159.25127722015597
139.0361 0.9945539122181537 -159.47340466920323
140.036 0.9945501613904216 -159.69305861845396
141.0359 0.9945464899965479 -159.9102881316737
142.0358 0.9945428960262225 -160.12514100568336
143.0357 0.994539377532189 -160.3376638102008
144.0356 0.9945359326279339 -160.5479019262195
145.0355 0.9945325594854749 -160.75589958298568
146.0354 0.9945292563332354 -160.96169989363122
147.0353 0.9945260214540119 -161.1653448895189
148.0352 0.9945228531830206 -161.36687555335098
149.0351 0.9945197499060243 -161.56633185109345
150.035 0.9945167100575381 -161.76375276276264
151.0349 0.9945137321191023 -161.95917631212083
152.0348 0.9945108146176301 -162.15263959532507
153.0347 0.994507956123818 -162.34417880857012
154.0346 0.9945051552506196 -162.5338292747667
155.0345 0.994502410651782 -162.72162546929286
156.0344 0.994499721020438 -162.90760104485486
157.0343 0.994497085087754 -163.0917888554933
158.0342 0.9944945016216306 -163.27422097976714
159.0341 0.9944919694254556 -163.4549287431484
160.034 0.9944894873369008 -163.63394273965736
161.0339 0.9944870542267716 -163.81129285276856
162.0338 0.994484668997895 -163.98700827561487
163.0337 0.9944823305840522 -164.16111753051646
164.0336 0.9944800379489537 -164.33364848786138
165.0335 0.9944777900852492 -164.50462838436076
166.0334 0.9944755860135781 -164.6740838407038
167.0333 0.9944734247816557 -164.84204087863398
168.0332 0.9944713054633891 -165.00852493746888
169.0331 0.9944692271580323 -165.1735608900836
170.033 0.9944671889893677 -165.33717305837837
171.0329 0.9944651901049206 -165.4993852282492
172.0328 0.9944632296751996 -165.66022066407922
173.0327 0.9944613068929686 -165.8197021227692
174.0326 0.9944594209725415 -165.97785186732332
175.0325 0.9944575711491047 -166.13469168000665
176.0324 0.994455756678064 -166.29024287508952
177.0323 0.9944539768344123 -166.44452631119387
178.0322 0.9944522309121239 -166.59756240325584
179.0321 0.9944505182235673 -166.7493711341179
180.032 0.9944488380989398 -166.89997206576405
181.0319 0.9944471898857214 -167.04938435021046
182.0318 0.9944455729481491 -167.19762674006378
183.0317 0.9944439866667089 -167.3447175987586
184.0316 0.9944424304376446 -167.49067491048532
185.0315 0.994440903672485 -167.63551628981924
186.0314 0.9944394057975865 -167.7792589910609
187.0313 0.9944379362536908 -167.92191991729808
188.0312 0.9944364944955009 -168.0635156291984
189.0311 0.9944350799912667 -168.20406235354213
190.031 0.9944336922223876 -168.34357599150394
191.0309 0.9944323306830295 -168.48207212669175
192.0308 0.9944309948797511 -168.6195660329515
193.0307 0.9944296843311455 -168.75607268194483
194.0306 0.994428398567494 -168.89160675050823
195.0305 0.9944271371304284 -169.0261826277997
196.0304 0.9944258995726081 -169.15981442224134
197.0303 0.9944246854574047 -169.29251596826327
198.0302 0.994423494358599 -169.42430083285652
199.0301 0.9944223258600874 -169.55518232193995
200.03 0.9944211795555966 -169.68517348654868
201.0299 0.9944200550484095 -169.8142871288483
202.0298 0.9944189519510983 -169.94253580798156
203.0297 0.994417869885267 -170.0699318457526
204.0296 0.994416808481302 -170.19648733215354
205.0295 0.99441576737813 -170.32221413073918
206.0294 0.9944147462229845 -170.44712388385378
207.0293 0.9944137446711796 -170.57122801771544
208.0292 0.9944127623858888 -170.6945377473617
209.0291 0.9944117990379346 -170.81706408146158
210.029 0.9944108543055814 -170.9388178269975
211.0289 0.9944099278743355 -171.05980959382148
212.0288 0.9944090194367526 -171.18004979908932
213.0287 0.9944081286922494 -171.299548671577
214.0286 0.9944072553469224 -171.41831625588213
215.0285 0.994406399113372 -171.53636241651446
216.0284 0.9944055597105304 -171.65369684187903
217.0283 0.9944047368634967 -171.7703290481545
218.0282 0.9944039303033769 -171.88626838307073
219.0281 0.9944031397671268 -172.00152402958753
220.028 0.9944023649974009 -172.11610500947893
221.0279 0.9944016057424067 -172.2300201868243
222.0278 0.9944008617557611 -172.3432782714104
223.0277 0.9944001327963531 -172.455887822046
224.0276 0.9943994186282092 -172.56785724979224
225.0275 0.9943987190203634 -172.67919482111108
226.0274 0.9943980337467313 -172.789908660934
227.0273 0.9943973625859862 -172.9000067556536
228.0272 0.9943967053214412 -173.0094969560402
229.0271 0.9943960617409334 -173.1183869800853
230.027 0.9943954316367102 -173.22668441577483
231.0269 0.9943948148053218 -173.3343967237933
232.0268 0.9943942110475144 -173.4415312401611
233.0267 0.9943936201681267 -173.54809517880744
234.0266 0.994393041975991 -173.65409563407977
235.0265 0.9943924762838349 -173.75953958319235
236.0264 0.9943919229081869 -173.86443388861494
237.0263 0.9943913816692854 -173.96878530040405
238.0262 0.9943908523909876 -174.07260045847772
239.0261 0.9943903349006844 -174.17588589483572
240.026 0.9943898290292149 -174.27864803572652
241.0259 0.994389334610785 -174.3808932037627
242.0258 0.9943888514828871 -174.48262761998623
243.0257 0.9943883794862217 -174.58385740588446
244.0256 0.9943879184646229 -174.68458858535897
245.0255 0.9943874682649851 -174.7848270866481
246.0254 0.994387028737191 -174.88457874420425
247.0253 0.994386599734041 -174.98384930052774
248.0252 0.9943861811111873 -175.08264440795796
249.0251 0.9943857727270665 -175.18096963042282
250.025 0.9943853744428369 -175.2788304451483
251.0249 0.9943849861223146 -175.3762322443283
252.0248 0.9943846076319135 -175.4731803367567
253.0247 0.9943842388405861 -175.5696799494217
254.0246 0.9943838796197659 -175.66573622906438
255.0245 0.9943835298433106 -175.7613542437017
256.0244 0.9943831893874484 -175.8565389841153
257.0243 0.9943828581307245 -175.95129536530663
258.0242 0.9943825359539489 -176.04562822791976
259.0241 0.994382222740146 -176.1395423396321
260.024 0.9943819183745054 -176.2330423965147
261.0239 0.9943816227443347 -176.32613302436167
262.0238 0.9943813357390116 -176.41881877999106
263.0237 0.9943810572499393 -176.5111041525164
264.0236 0.9943807871705009 -176.60299356459083
265.0235 0.9943805253960184 -176.6944913736239
266.0234 0.9943802718237078 -176.78560187297168
267.0233 0.99438002635264 -176.87632929310158
268.0232 0.9943797888837005 -176.96667780273123
269.0231 0.9943795593195488 -177.05665150994344
270.023 0.9943793375645824 -177.14625446327702
271.0229 0.9943791235248983 -177.23549065279406
272.0228 0.9943789171082571 -177.32436401112483
273.0227 0.9943787182240479 -177.41287841449008
274.0226 0.9943785267832533 -177.50103768370195
275.0225 0.9943783426984166 -177.58884558514367
276.0224 0.9943781658836082 -177.67630583172863
277.0223 0.9943779962543939 -177.76342208383932
278.0222 0.9943778337278036 -177.85019795024672
279.0221 0.9943776782223007 -177.9366369890105
280.022 0.9943775296577532 -178.02274270836054
281.0219 0.9943773879554035 -178.10851856756014
282.0218 0.9943772530378402 -178.1939679777516
283.0217 0.9943771248289716 -178.2790943027843
284.0216 0.9943770032539974 -178.36390086002575
285.0215 0.9943768882393826 -178.44839092115623
286.0214 0.9943767797128322 -178.53256771294727
287.0213 0.9943766776032664 -178.6164344180241
288.0212 0.9943765818407942 -178.69999417561309
289.0211 0.9943764923566917 -178.78325008227355
290.021 0.9943764090833775 -178.86620519261552
291.0209 0.9943763319543896 -178.9488625200027
292.0208 0.9943762609043639 -179.03122503724137
293.0207 0.9943761958690117 -179.11329567725593
294.0206 0.9943761367850983 -179.19507733375076
295.0205 0.9943760835904231 -179.27657286185902
296.0204 0.994376036223798 -179.35778507877887
297.0203 0.9943759946250287 -179.43871676439684
298.0202 0.9943759587348937 -179.5193706618995
299.0201 0.9943759284951275 -179.59974947837256
300.02 0.9943759038483992 -179.67985588538903
301.0199 0.9943758847382976 -179.75969251958517
302.0198 0.9943758711093107 -179.83926198322618
303.0197 0.9943758629068089 -179.9185668447602
304.0196 0.9943758600770302 -179.99760963936217
305.0195 0.9943758625670601 179.923607130533
306.0194 0.9943758703248187 179.84508099470708
307.0193 0.9943758832990419 179.76680951464573
308.0192 0.9943759014392688 179.6887902830348
309.0191 0.994375924695824 179.6110209232667
310.019 0.9943759530198044 179.53349908895555
311.0189 0.9943759863630632 179.45622246346207
312.0188 0.9943760246781981 179.37918875942665
313.0187 0.9943760679185342 179.30239571831183
314.0186 0.9943761160381134 179.22584110995294
315.0185 0.9943761689916789 179.14952273211708
316.0184 0.9943762267346637 179.07343841007034
317.0183 0.9943762892231768 178.99758599615308
318.0182 0.9943763564139917 178.92196336936303
319.0181 0.9943764282645327 178.84656843494574
320.018 0.994376504732865 178.77139912399298
321.0179 0.9943765857776813 178.69645339304816
322.0178 0.9943766713582914 178.62172922371906
323.0177 0.9943767614346102 178.54722462229742
324.0176 0.9943768559671476 178.47293761938568
325.0175 0.9943769549169971 178.39886626953023
326.0174 0.9943770582458251 178.32500865086135
327.0173 0.9943771659158613 178.2513628647395
328.0172 0.9943772778898892 178.17792703540812
329.0171 0.9943773941312336 178.10469930965243
330.017 0.9943775146037543 178.03167785646454
331.0169 0.9943776392718342 177.958860866714
332.0168 0.9943777681003713 177.88624655282487
333.0167 0.9943779010547686 177.81383314845783
334.0166 0.994378038100926 177.74161890819835
335.0165 0.9943781792052317 177.66960210725
336.0164 0.9943783243345531 177.5977810411333
337.0163 0.9943784734562287 177.52615402538973
338.0162 0.9943786265380595 177.45471939529097
339.0161 0.9943787835483023 177.383475505553
340.016 0.9943789444556593 177.31242073005555
341.0159 0.9943791092292734 177.24155346156564
342.0158 0.9943792778387187 177.17087211146665
343.0157 0.994379450253993 177.10037510949164
344.0156 0.9943796264455121 177.0300609034612
345.0155 0.9943798063841011 176.95992795902592
346.0154 0.9943799900409876 176.8899747594131
347.0153 0.9943801773877965 176.82019980517788
348.0152 0.9943803683965409 176.75060161395848
349.0151 0.9943805630396172 176.68117872023558
350.015 0.9943807612897979 176.6119296750957
351.0149 0.9943809631202261 176.54285304599873
352.0148 0.9943811685044082 176.47394741654907
353.0147 0.9943813774162078 176.40521138627082
354.0146 0.9943815898298421 176.33664357038654
355.0145 0.9943818057198722 176.26824259959977
356.0144 0.9943820250612004 176.20000711988115
357.0143 0.9943822478290639 176.131935792258
358.0142 0.9943824739990279 176.06402729260736
359.0141 0.9943827035469823 175.99628031145252
360.014 0.9943829364491348 175.92869355376283
361.0139 0.9943831726820063 175.86126573875663
362.0138 0.9943834122224258 175.7939955997077
363.0137 0.9943836550475249 175.72688188375443
364.0136 0.9943839011347344 175.65992335171256
365.0135 0.994384150461777 175.5931187778905
366.0134 0.9943844030066649 175.5264669499079
367.0133 0.9943846587476934 175.45996666851698
368.0132 0.9943849176634378 175.39361674742693
369.0131 0.994385179732748 175.32741601313072
370.013 0.9943854449347446 175.26136330473523
371.0129 0.9943857132488133 175.1954574737935
372.0128 0.9943859846546032 175.12969738414
373.0127 0.99438625913202 175.0640819117284
374.0126 0.9943865366612235 174.998609944472
375.0125 0.994386817222623 174.9332803820863
376.0124 0.9943871007968742 174.86809213593466
377.0123 0.9943873873648736 174.80304412887577
378.0122 0.9943876769077563 174.7381352951138
379.0121 0.9943879694068917 174.6733645800509
380.012 0.9943882648438803 174.60873094014192
381.0119 0.9943885632005492 174.54423334275128
382.0118 0.9943888644589491 174.47987076601223
383.0117 0.9943891686013512 174.41564219868823
384.0116 0.9943894756102427 174.3515466400364
385.0115 0.9943897854683253 174.28758309967296
386.0114 0.9943900981585099 174.22375059744112
387.0113 0.9943904136639146 174.1600481632805
388.0112 0.9943907319678611 174.09647483709887
389.0111 0.9943910530538721 174.0330296686457
390.011 0.9943913769056671 173.9697117173877
391.0109 0.9943917035071616 173.906520052386
392.0108 0.9943920328424605 173.8434537521757
393.0107 0.9943923648958597 173.78051190464646
394.0106 0.994392699651839 173.7176936069258
395.0105 0.994393037095063 173.65499796526333
396.0104 0.9943933772103758 173.59242409491713
397.0103 0.9943937199827988 173.52997112004167
398.0102 0.9943940653975295 173.46763817357768
399.0101 0.9943944134399363 173.40542439714312
400.01 0.9943947640955583 173.34332894092623
401.0099 0.994395117350102 173.28135096358002
402.0098 0.9943954731894382 173.2194896321182
403.0097 0.9943958315996004 173.1577441218127
404.0096 0.9943961925667821 173.09611361609277
405.0095 0.9943965560773343 173.03459730644548
406.0094 0.9943969221177639 172.97319439231765
407.0093 0.9943972906747295 172.9119040810192
408.0092 0.9943976617350418 172.85072558762798
409.0091 0.9943980352856597 172.78965813489594
410.009 0.9943984113136884 172.72870095315662
411.0089 0.9943987898063779 172.6678532802339
412.0088 0.9943991707511199 172.60711436135236
413.0087 0.9943995541354467 172.54648344904842
414.0086 0.9943999399470285 172.48595980308335
415.0085 0.9944003281736722 172.425542690357
416.0084 0.9944007188033178 172.36523138482295
417.0083 0.9944011118240395 172.30502516740512
418.0082 0.9944015072240397 172.2449233259151
419.0081 0.9944019049916517 172.18492515497087
420.008 0.9944023051153335 172.12502995591674
421.0079 0.9944027075836691 172.06523703674443
422.0078 0.9944031123853656 172.005545712015
423.0077 0.9944035195092518 171.945955302782
424.0076 0.9944039289442752 171.886465136516
