!Created with skrf (http://scikit-rf.org).
# MHz S MA R 50.0 
!freq magS11 angS11
0.05 0.9999999999013043 -0.17999985682382996
1.0499 0.9999999565295912 -3.778315267932432
2.0498 0.9999998347944073 -7.36943896375426
3.0497 0.9999996360915685 -10.946605148716884
4.0496 0.9999993626726824 -14.503207101269437
5.0495 0.9999990175821822 -18.03286906307061
6.0494 0.9999986045743363 -21.529511750671563
7.0493 0.9999981280143638 -24.987409921633322
8.0492 0.9999975927683457 -28.40124081311994
9.0491 0.9999970040868449 -31.76612269141482
10.049 0.9999963674870435 -35.07764317594491
11.0489 0.9999956886378003 -38.331877404177796
12.0488 0.9999949732514268 -41.52539646183509
13.0487 0.9999942269851977 -44.655266800086416
14.0486 0.9999934553547865 -47.71904158833808
15.0485 0.9999926636609785 -50.714745104998514
16.0484 0.9999918569302366 -53.64085135190389
17.0483 0.999991039869021 -56.49625809799626
18.0482 0.9999902168312134 -59.28025752435925
19.0481 0.9999893917975854 -61.99250456734704
20.048 0.9999885683659727 -64.63298395110426
21.0479 0.9999877497506495 -67.20197677641538
22.0478 0.9999869387893584 -69.70002739937435
23.0477 0.9999861379564663 -72.12791119895248
24.0476 0.999985349380814 -74.48660370345455
25.0475 0.9999845748669557 -76.77725142658821
26.0474 0.9999838159186488 -79.00114465730945
27.0473 0.9999830737636113 -81.15969235525988
28.0472 0.9999823493787388 -83.25439922590039
29.0471 0.9999816435151347 -85.28684498597057
30.047 0.9999809567224384 -87.25866577970028
31.0469 0.9999802893720862 -89.17153766794276
32.0468 0.9999796416792295 -91.02716208458533
33.0467 0.9999790137231456 -92.82725313566164
34.0466 0.9999784054660388 -94.57352660502394
35.0465 0.9999778167702003 -96.26769052482275
36.0464 0.9999772474135395 -97.91143716810957
37.0463 0.9999766971035284 -99.50643632352399
38.0462 0.9999761654896392 -101.05432971729448
39.0461 0.9999756521743567 -102.5567264548894
40.046 0.999975156722874 -104.01519936295846
41.0459 0.9999746786715696 -105.43128212118877
42.0458 0.9999742175353784 -106.80646708297043
43.0457 0.9999737728141569 -108.14220369301589
44.0456 0.9999733439981494 -109.43989741908733
45.0455 0.9999729305726472 -110.70090912359557
46.0454 0.9999725320219338 -111.92655480894275
47.0453 0.9999721478325947 -113.11810567801932
48.0452 0.9999717774962756 -114.27678845821038
49.0451 0.9999714205119509 -115.40378594360139
50.045 0.9999710763877692 -116.50023771581543
51.0449 0.9999707446425316 -117.5672410090798
52.0448 0.9999704248068514 -118.60585168974718
53.0447 0.9999701164240424 -119.6170853246116
54.0446 0.9999698190507715 -120.60191831601183
55.0445 0.9999695322575135 -121.5612890849346
56.0444 0.9999692556288382 -122.49609928616253
57.0443 0.9999689887635544 -123.4072150419928
58.0442 0.9999687312747356 -124.29546818321732
59.0441 0.9999684827896479 -125.16165748793972
60.044 0.9999682429495961 -126.006549910438
61.0439 0.9999680114097037 -126.83088179369385
62.0438 0.9999677878386417 -127.635360060427
63.0437 0.9999675719183125 -128.4206633785163
64.0436 0.9999673633435042 -129.18744329758576
65.0435 0.999967161821519 -129.93632535429285
66.0434 0.9999669670717839 -130.66791014450752
67.0433 0.9999667788254515 -131.38277436111417
68.0432 0.9999665968249908 -132.0814717966321
69.0431 0.9999664208237796 -132.76453431023455
70.043 0.9999662505856916 -133.43247275906637
71.0429 0.999966085884692 -134.08577789402733
72.0428 0.9999659265044355 -134.72492122040256
73.0427 0.9999657722378733 -135.3503558238989
74.0426 0.9999656228868677 -135.96251716278584
75.0425 0.9999654782618166 -136.56182382695042
76.0424 0.9999653381812884 -137.14867826475995
77.0423 0.999965202471671 -137.72346747869102
78.0422 0.9999650709668274 -138.28656369072726
79.0421 0.9999649435077684 -138.83832497855926
80.042 0.9999648199423345 -139.37909588363627
81.0419 0.99996470012489 -139.9092079921271
82.0418 0.999964583916031 -140.42898048984455
83.0417 0.9999644711823028 -140.93872069217804
84.0416 0.9999643617959317 -141.43872455006584
85.0415 0.9999642556345667 -141.9292771330153
86.0414 0.9999641525810319 -142.41065309015943
87.0413 0.9999640525230907 -142.88311709030916
88.0412 0.9999639553532219 -143.34692424193366
89.0411 0.9999638609684023 -143.80232049397029
90.041 0.9999637692699026 -144.24954301833512
91.0409 0.9999636801630911 -144.68882057497302
92.0408 0.9999635935572474 -145.1203738602547
93.0407 0.9999635093653831 -145.54441583949568
94.0406 0.999963427504073 -145.96115206434072
95.0405 0.999963347893293 -146.37078097572592
96.0404 0.9999632704562662 -146.77349419309996
97.0403 0.9999631951193162 -147.16947679055636
98.0402 0.9999631218117262 -147.5589075604983
99.0401 0.9999630504656077 -147.9419592654311
100.04 0.9999629810157726 -148.31879887844755
101.0399 0.9999629133996116 -148.6895878129476
102.0398 0.9999628475569825 -149.05448214210637
103.0397 0.999962783430096 -149.41363280858022
104.0396 0.9999627209634163 -149.76718582491847
105.0395 0.9999626601035582 -150.11528246512412
106.0394 0.9999626007991946 -150.45805944778616
107.0393 0.9999625430009659 -150.79564911118575
108.0392 0.9999624866613942 -151.12817958075792
109.0391 0.999962431734802 -151.45577492927265
110.039 0.9999623781772337 -151.77855533008017
111.0389 0.9999623259463819 -152.09663720374982
112.0388 0.999962275001518 -152.41013335841342
113.0387 0.9999622253034226 -152.71915312411062
114.0386 0.9999621768143231 -153.02380248141785
115.0385 0.9999621294978316 -153.32418418462873
116.0384 0.9999620833188879 -153.62039787974075
117.0383 0.9999620382437027 -153.91254021748983
118.0382 0.9999619942397044 -154.2007049616631
119.0381 0.9999619512754905 -154.48498309290815
120.038 0.9999619093207769 -154.76546290824686
121.0379 0.9999618683463536 -155.04223011649063
122.0378 0.9999618283240408 -155.31536792974543
123.0377 0.999961789226645 -155.58495715118462
124.0376 0.9999617510279226 -155.85107625925932
125.0375 0.999961713702538 -156.11380148850782
126.0374 0.9999616772260294 -156.3732069071174
127.0373 0.9999616415747732 -156.6293644913839
128.0372 0.9999616067259508 -156.88234419720908
129.0371 0.9999615726575174 -157.1322140287666
130.037 0.9999615393481699 -157.37904010446292
131.0369 0.9999615067773202 -157.62288672031255
132.0368 0.9999614749250659 -157.86381641084134
133.0367 0.9999614437721634 -158.10189000762642
134.0366 0.9999614133000047 -158.3371666955756
135.0365 0.9999613834905896 -158.5697040670448
136.0364 0.9999613543265065 -158.79955817388657
137.0363 0.9999613257909065 -159.02678357751927
138.0362 0.9999612978674842 -159.2514333971017
139.0361 0.9999612705404574 -159.4735593558938
140.036 0.9999612437945462 -159.6932118258808
141.0359 0.9999612176149554 -159.91043987073422
142.0358 0.999961191987356 -160.1252912871796
143.0357 0.9999611668978687 -160.3378126448382
144.0356 0.9999611423330469 -160.54804932460587
145.0355 0.9999611182798605 -160.75604555563027
146.0354 0.9999610947256825 -160.9618444509442
147.0353 0.9999610716582719 -161.16548804181053
148.0352 0.9999610490657626 -161.36701731083127
149.0351 0.9999610269366479 -161.56647222387187
150.035 0.9999610052597687 -161.7638917608477
151.0349 0.9999609840243013 -161.95931394542026
152.0348 0.9999609632197447 -162.1527758736455
153.0347 0.9999609428359104 -162.3443137416173
154.0346 0.9999609228629112 -162.5339628721456
155.0345 0.9999609032911501 -162.72175774050785
156.0344 0.9999608841113111 -162.90773199931007
157.0343 0.9999608653143496 -163.09191850249294
158.0342 0.9999608468914815 -163.27434932851588
159.0341 0.9999608288341771 -163.4550558027518
160.034 0.9999608111341508 -163.63406851912254
161.0339 0.9999607937833522 -163.81141736100463
162.0338 0.9999607767739601 -163.98713152143353
163.0337 0.9999607600983732 -164.1612395226327
164.0336 0.999960743749204 -164.33376923489413
165.0335 0.9999607277192714 -164.5047478948336
166.0334 0.9999607120015933 -164.6742021230457
167.0333 0.9999606965893805 -164.8421579411801
168.0332 0.9999606814760312 -165.00864078846118
169.0331 0.9999606666551235 -165.1736755376719
170.033 0.999960652120411 -165.33728651062106
171.0329 0.9999606378658157 -165.49949749311403
172.0328 0.9999606238854244 -165.66033174944423
173.0327 0.9999606101734819 -165.81981203642363
174.0326 0.9999605967243869 -165.97796061696835
175.0325 0.9999605835326864 -166.13479927325645
176.0324 0.9999605705930721 -166.290349319472
177.0323 0.999960557900375 -166.44463161415175
178.0322 0.9999605454495611 -166.5976665721474
179.0321 0.9999605332357285 -166.74947417621803
180.032 0.9999605212541016 -166.9000739882651
181.0319 0.9999605095000285 -167.04948516022316
182.0318 0.9999604979689753 -167.19772644461818
183.0317 0.9999604866565258 -167.34481620480497
184.0316 0.9999604755583757 -167.49077242489514
185.0315 0.9999604646703287 -167.63561271938605
186.0314 0.9999604539882954 -167.77935434250122
187.0313 0.999960443508288 -167.92201419725237
188.0312 0.9999604332264186 -168.06360884423194
189.0311 0.9999604231388959 -168.20415451014594
190.031 0.9999604132420225 -168.34366709609563
191.0309 0.999960403532192 -168.48216218561657
192.0308 0.9999603940058852 -168.61965505248304
193.0307 0.9999603846596706 -168.75616066828607
194.0306 0.9999603754901992 -168.89169370979232
195.0305 0.9999603664942021 -169.02626856609083
196.0304 0.9999603576684901 -169.15989934553568
197.0303 0.9999603490099498 -169.29259988248984
198.0302 0.9999603405155425 -169.42438374387788
199.0301 0.9999603321823008 -169.5552642355533
200.03 0.9999603240073285 -169.68525440848643
201.0299 0.9999603159877963 -169.81436706477913
202.0298 0.9999603081209424 -169.94261476351113
203.0297 0.9999603004040679 -170.0700098264243
204.0296 0.9999602928345381 -170.1965643434495
205.0295 0.9999602854097781 -170.32229017808083
206.0294 0.9999602781272724 -170.44719897260282
207.0293 0.9999602709845634 -170.57130215317449
208.0292 0.9999602639792498 -170.69461093477517
209.0291 0.9999602571089836 -170.81713632601637
210.029 0.9999602503714712 -170.9388891338238
211.0289 0.9999602437644702 -171.05987996799345
212.0288 0.999960237285788 -171.18011924562592
213.0287 0.9999602309332812 -171.29961719544264
214.0286 0.9999602247048548 -171.41838386198734
215.0285 0.9999602185984591 -171.53642910971678
216.0284 0.9999602126120893 -171.65376262698354
217.0283 0.9999602067437859 -171.7703939299146
218.0282 0.9999602009916316 -171.88633236618875
219.0281 0.9999601953537506 -172.0015871187155
220.028 0.9999601898283073 -172.11616720921916
221.0279 0.9999601844135068 -172.2300815017301
222.0278 0.9999601791075919 -172.34333870598667
223.0277 0.9999601739088436 -172.45594738074988
224.0276 0.9999601688155793 -172.56791593703383
225.0275 0.9999601638261515 -172.67925264125392
226.0274 0.9999601589389485 -172.7899656182958
227.0273 0.9999601541523919 -172.9000628545068
228.0272 0.9999601494649367 -173.00955220061252
229.0271 0.9999601448750699 -173.1184413745605
230.027 0.9999601403813099 -173.22673796429305
231.0269 0.999960135982206 -173.33444943045177
232.0268 0.9999601316763372 -173.44158310901477
233.0267 0.9999601274623122 -173.54814621386942
234.0266 0.9999601233387677 -173.6541458393219
235.0265 0.999960119304368 -173.75958896254573
236.0264 0.9999601153578048 -173.8644824459706
237.0263 0.9999601114977964 -173.9688330396133
238.0262 0.9999601077230867 -174.07264738335275
239.0261 0.9999601040324448 -174.1759320091501
240.026 0.9999601004246643 -174.27869334321574
241.0259 0.9999600968985629 -174.38093770812466
242.0258 0.9999600934529819 -174.48267132488166
243.0257 0.9999600900867853 -174.5839003149375
244.0256 0.9999600867988592 -174.6846307021576
245.0255 0.9999600835881124 -174.78486841474455
246.0254 0.9999600804534737 -174.8846192871156
247.0253 0.9999600773938936 -174.9838890617363
248.0252 0.9999600744083429 -175.08268339091168
249.0251 0.9999600714958121 -175.18100783853586
250.025 0.9999600686553113 -175.27886788180132
251.0249 0.9999600658858683 -175.37626891286902
252.0248 0.9999600631865317 -175.4732162405002
253.0247 0.9999600605563663 -175.56971509165098
254.0246 0.9999600579944554 -175.66577061303062
255.0245 0.9999600554998996 -175.76138787262485
256.0244 0.999960053071816 -175.85657186118425
257.0243 0.9999600507093386 -175.95132749367983
258.0242 0.9999600484116175 -176.04565961072547
259.0241 0.9999600461778183 -176.13957297996888
260.024 0.9999600440071225 -176.23307229745163
261.0239 0.999960041898726 -176.32616218893892
262.0238 0.9999600398518405 -176.4188472112201
263.0237 0.9999600378656911 -176.51113185338048
264.0236 0.9999600359395178 -176.6030205380452
265.0235 0.9999600340725738 -176.69451762259632
266.0234 0.9999600322641262 -176.7856274003627
267.0233 0.9999600305134555 -176.87635410178478
268.0232 0.9999600288198542 -176.96670189555377
269.0231 0.999960027182629 -177.05667488972622
270.023 0.9999600256010974 -177.14627713281502
271.0229 0.9999600240745902 -177.23551261485676
272.0228 0.9999600226024492 -177.3243852684565
273.0227 0.9999600211840285 -177.41289896981002
274.0226 0.999960019818693 -177.50105753970487
275.0225 0.9999600185058194 -177.58886474449997
276.0224 0.9999600172447947 -177.67632429708473
277.0223 0.9999600160350164 -177.7634398578179
278.0222 0.9999600148758933 -177.8502150354471
279.0221 0.9999600137668437 -177.93665338800884
280.022 0.9999600127072962 -178.02275842371012
281.0219 0.9999600116966889 -178.10853360179175
282.0218 0.99996001073447 -178.19398233337373
283.0217 0.9999600098200968 -178.27910798228336
284.0216 0.9999600089530355 -178.3639138658665
285.0215 0.9999600081327621 -178.44840325578193
286.0214 0.9999600073587612 -178.53257937877993
287.0213 0.999960006630525 -178.6164454174648
288.0212 0.9999600059475561 -178.70000451104215
289.0211 0.9999600053093637 -178.78325975605094
290.021 0.999960004715466 -178.86621420708093
291.0209 0.9999600041653891 -178.94887087747583
292.0208 0.9999600036586667 -179.03123274002226
293.0207 0.9999600031948402 -179.1133027276251
294.0206 0.9999600027734592 -179.19508373396948
295.0205 0.9999600023940792 -179.27657861416952
296.0204 0.9999600020562648 -179.35779018540458
297.0203 0.9999600017595862 -179.4387212275427
298.0202 0.999960001503621 -179.51937448375193
299.0201 0.9999600012879535 -179.5997526611
300.02 0.999960001112175 -179.6798584311419
301.0199 0.9999600009758836 -179.75969443049627
302.0198 0.9999600008786828 -179.8392632614107
303.0197 0.9999600008201833 -179.9185674923161
304.0196 0.9999600008000014 -179.9976096583703
305.0195 0.9999600008177603 179.92360773800866
306.0194 0.999960000873088 179.84508222661927
307.0193 0.9999600009656188 179.76681136896366
308.0192 0.9999600010949934 179.68879275774404
309.0191 0.9999600012608573 179.61102401636893
310.019 0.9999600014628612 179.53350279846836
311.0189 0.9999600017006622 179.45622678741876
312.0188 0.9999600019739225 179.37919369587613
313.0187 0.9999600022823089 179.30240126531845
314.0186 0.9999600026254934 179.22584726559617
315.0185 0.9999600030031537 179.14952949449145
316.0184 0.9999600034149713 179.07344577728526
317.0183 0.9999600038606339 178.99759396633266
318.0182 0.9999600043398328 178.9219719406459
319.0181 0.9999600048522642 178.84657760548487
320.018 0.9999600053976294 178.77140889195553
321.0179 0.9999600059756336 178.69646375661537
322.0178 0.9999600065859866 178.62174018108598
323.0177 0.9999600072284026 178.54723617167292
324.0176 0.9999600079025999 178.4729497589921
325.0175 0.9999600086083006 178.3988789976034
326.0174 0.9999600093452322 178.32502196565022
327.0173 0.9999600101131243 178.2513767645063
328.0172 0.9999600109117122 178.17794151842799
329.0171 0.9999600117407342 178.10471437421333
330.017 0.9999600125999323 178.03169350086705
331.0169 0.9999600134890527 177.95887708927137
332.0168 0.9999600144078452 177.88626335186262
333.0167 0.9999600153560624 177.8138505223138
334.0166 0.9999600163334618 177.7416368552225
335.0165 0.9999600173398032 177.66962062580427
336.0164 0.9999600183748505 177.5978001295915
337.0163 0.9999600194383704 177.5261736821374
338.0162 0.9999600205301338 177.45473961872526
339.0161 0.9999600216499139 177.38349629408256
340.016 0.999960022797488 177.3124420821003
341.0159 0.9999600239726355 177.24157537555678
342.0158 0.9999600251751394 177.17089458584653
343.0157 0.9999600264047857 177.10039814271346
344.0156 0.9999600276613637 177.03008449398916
345.0155 0.9999600289446652 176.95995210533488
346.0154 0.999960030254485 176.88999945998862
347.0153 0.9999600315906205 176.820225058516
348.0152 0.9999600329528723 176.7506274185656
349.0151 0.9999600343410434 176.68120507462845
350.015 0.9999600357549397 176.61195657780124
351.0149 0.9999600371943697 176.54288049555393
352.0148 0.9999600386591442 176.47397541150087
353.0147 0.9999600401490768 176.40523992517606
354.0146 0.999960041663984 176.33667265181174
355.0145 0.999960043203684 176.26827222212117
356.0144 0.999960044767998 176.2000372820845
357.0143 0.9999600463567492 176.1319664927385
358.0142 0.9999600479697632 176.06405852996963
359.0141 0.9999600496068685 175.99631208431035
360.014 0.999960051267895 175.92872586073915
361.0139 0.9999600529526751 175.8612985784835
362.0138 0.9999600546610442 175.79402897082605
363.0137 0.9999600563928384 175.72691578491418
364.0136 0.999960058147897 175.65995778157227
365.0135 0.9999600599260614 175.5931537351175
366.0134 0.9999600617271747 175.5265024331781
367.0133 0.9999600635510818 175.4600026765148
368.0132 0.9999600653976298 175.39365327884516
369.0131 0.9999600672666684 175.32745306667056
370.013 0.9999600691580484 175.26140087910605
371.0129 0.9999600710716225 175.19549556771287
372.0128 0.999960073007246 175.12973599633355
373.0127 0.9999600749647751 175.06412104092982
374.0126 0.9999600769440685 174.99864958942274
375.0125 0.9999600789449866 174.9333205415358
376.0124 0.9999600809673913 174.86813280864004
377.0123 0.9999600830111465 174.80308531360177
378.0122 0.9999600850761172 174.73817699063284
379.0121 0.9999600871621708 174.67340678514293
380.012 0.9999600892691761 174.60877365359426
381.0119 0.9999600913970035 174.5442765633586
382.0118 0.9999600935455247 174.4799144925766
383.0117 0.9999600957146135 174.41568643001887
384.0116 0.9999600979041451 174.35159137494963
385.0115 0.999960100113996 174.28762833699227
386.0114 0.9999601023440443 174.22379633599695
387.0113 0.9999601045941691 174.16009440191024
388.0112 0.9999601068642521 174.09652157464677
389.0111 0.9999601091541754 174.0330769039628
390.011 0.9999601114638234 173.96975944933175
391.0109 0.9999601137930804 173.90656827982147
392.0108 0.9999601161418339 173.84350247397356
393.0107 0.9999601185099715 173.78056111968436
394.0106 0.9999601208973827 173.71774331408776
395.0105 0.9999601233039579 173.65504816343974
396.0104 0.999960125729589 173.59247478300475
397.0103 0.9999601281741692 173.5300222969436
398.0102 0.999960130637593 173.46768983820314
399.0101 0.9999601331197562 173.40547654840756
400.01 0.9999601356205552 173.3433815777512
401.0099 0.9999601381398884 173.28140408489304
402.0098 0.9999601406776546 173.2195432368528
403.0097 0.9999601432337547 173.15779820890833
404.0096 0.9999601458080898 173.09616818449476
405.0095 0.9999601484005627 173.03465235510492
406.0094 0.9999601510110772 172.97324992019145
407.0093 0.999960153639538 172.9119600870699
408.0092 0.9999601562858514 172.85078207082378
409.0091 0.9999601589499238 172.78971509421066
410.009 0.9999601616316637 172.72875838756957
411.0089 0.9999601643309799 172.6679111887299
412.0088 0.9999601670477825 172.6071727429216
413.0087 0.9999601697819824 172.5465423026865
414.0086 0.999960172533492 172.48601912779125
415.0085 0.9999601753022241 172.42560248514084
416.0084 0.9999601780880928 172.36529164869424
417.0083 0.999960180891013 172.3050858993804
418.0082 0.9999601837109002 172.2449845250161
419.0081 0.9999601865476715 172.18498682022437
420.008 0.9999601894012449 172.1250920863546
421.0079 0.9999601922715381 172.06529963140346
422.0078 0.9999601951584711 172.0056087699369
423.0077 0.9999601980619645 171.94601882301345
