!Created with skrf (http://scikit-rf.org).
# MHz S MA R 50.0 
!freq magS11 angS11
0.05 1.0 -0.1799998519561531
1.0499 0.9999999999999999 -3.778270249585366
2.0498 1.0 -7.369104945916666
3.0497 1.0 -10.945510539584268
4.0496 0.9999999999999999 -14.500661724781278
5.0495 1.0 -18.02797712431067
6.0494 1.0 -21.521188242604723
7.0493 1.0 -24.9743998593681
8.0492 1.0 -28.382140608773383
9.0491 1.0 -31.7394029496468
10.049 0.9999999999999999 -35.041672195874405
11.0489 0.9999999999999999 -38.284944713365086
12.0488 1.0 -41.465735775863166
13.0487 0.9999999999999999 -44.58107788932264
14.0486 1.0 -47.628510633674985
15.0485 1.0 -50.60606322914512
16.0484 0.9999999999999999 -53.51223111550577
17.0483 0.9999999999999999 -56.345947845234654
18.0482 0.9999999999999999 -59.10655354695962
19.0481 1.0 -61.793761126833225
20.048 0.9999999999999999 -64.40762125571396
21.0479 1.0 -66.94848705147709
22.0478 1.0 -69.41697921908417
23.0477 1.0 -71.8139522648749
24.0476 1.0 -74.14046226250531
25.0475 1.0000000000000002 -76.39773652064144
26.0474 1.0 -78.58714538976699
27.0473 1.0 -80.71017634863549
28.0472 1.0 -82.76841043020382
29.0471 1.0 -84.7635009816804
30.047 1.0 -86.69715470239987
31.0469 0.9999999999999999 -88.57111486503953
32.0468 0.9999999999999999 -90.38714659850696
33.0467 1.0000000000000002 -92.14702409292032
34.0466 0.9999999999999999 -93.85251957680268
35.0465 1.0 -95.50539391239802
36.0464 1.0 -97.10738865552435
37.0463 1.0 -98.66021943043648
38.0462 0.9999999999999999 -100.16557047678529
39.0461 1.0 -101.62509023411458
40.046 0.9999999999999999 -103.04038783877071
41.0459 0.9999999999999999 -104.41303041809677
42.0458 1.0 -105.74454107693998
43.0457 1.0 -107.0363974815233
44.0456 1.0 -108.29003095540128
45.0455 1.0 -109.50682601139187
46.0454 1.0 -110.68812025195196
47.0453 1.0 -111.83520457839586
48.0452 1.0 -112.94932365661806
49.0451 1.0 -114.03167659357771
50.045 1.0 -115.08341778475227
51.0449 1.0 -116.10565789809911
52.0448 1.0 -117.09946496481739
53.0447 1.0 -118.0658655514177
54.0446 0.9999999999999999 -119.00584599132979
55.0445 1.0 -119.92035365755169
56.0444 1.0 -120.81029826071136
57.0443 1.0 -121.67655315941482
58.0442 0.9999999999999999 -122.51995667193104
59.0441 0.9999999999999999 -123.34131338015271
60.044 1.0 -124.14139541840065
61.0439 1.0 -124.92094374104614
62.0438 1.0 -125.6806693641292
63.0437 1.0 -126.42125457718232
64.0436 0.9999999999999999 -127.14335412234814
65.0435 1.0 -127.84759633862437
66.0434 0.9999999999999999 -128.53458426970036
67.0433 0.9999999999999999 -129.20489673437928
68.0432 1.0 -129.85908935902367
69.0431 1.0 -130.4976955718313
70.043 1.0 -131.12122755905196
71.0429 1.0 -131.73017718350692
72.0428 1.0 -132.32501686597286
73.0427 0.9999999999999999 -132.90620043015576
74.0426 1.0 -133.4741639121064
75.0425 1.0 -134.02932633502854
76.0424 1.0 -134.5720904505031
77.0423 1.0 -135.10284344720625
78.0422 1.0 -135.62195762823282
79.0421 1.0 -136.1297910581592
80.042 0.9999999999999999 -136.6266881809873
81.0419 0.9999999999999999 -137.1129804101103
82.0418 1.0 -137.58898669143235
83.0417 0.9999999999999999 -138.05501404075707
84.0416 0.9999999999999999 -138.51135805654005
85.0415 1.0 -138.95830340907372
86.0414 0.9999999999999999 -139.39612430714564
87.0413 0.9999999999999999 -139.82508494317938
88.0412 0.9999999999999999 -140.24543991783452
89.0411 1.0 -140.65743464500957
90.041 1.0 -141.06130573815457
91.0409 1.0 -141.45728137876813
92.0408 0.9999999999999999 -141.84558166791612
93.0407 1.0000000000000002 -142.22641896157663
94.0406 0.9999999999999999 -142.59999819057978
95.0405 0.9999999999999999 -142.96651716587925
96.0404 0.9999999999999999 -143.3261668698579
97.0403 1.0 -143.6791317343396
98.0402 1.0 -144.0255899059468
99.0401 1.0000000000000002 -144.36571349941525
100.04 1.0 -144.69966883944673
101.0399 0.9999999999999999 -145.02761669165415
102.0398 1.0 -145.34971248312615
103.0397 0.9999999999999999 -145.66610651311262
104.0396 1.0 -145.97694415430846
105.0395 0.9999999999999999 -146.28236604518918
106.0394 1.0 -146.58250827382932
107.0393 0.9999999999999999 -146.87750255361433
108.0392 0.9999999999999999 -147.1674763912341
109.0391 1.0 -147.45255324732943
110.039 0.9999999999999999 -147.7328526901425
111.0389 1.0 -148.00849054250492
112.0388 1.0000000000000002 -148.27957902248102
113.0387 1.0 -148.54622687796774
114.0386 1.0 -148.80853951553652
115.0385 0.9999999999999999 -149.06661912379013
116.0384 0.9999999999999999 -149.32056479149122
117.0383 1.0 -149.57047262070927
118.0382 1.0 -149.81643583521728
119.0381 0.9999999999999999 -150.05854488436103
120.038 0.9999999999999999 -150.2968875426097
121.0379 1.0000000000000002 -150.5315490049884
122.0378 1.0 -150.76261197858224
123.0377 1.0 -150.99015677029206
124.0376 1.0 -151.214261371013
125.0375 0.9999999999999999 -151.4350015363996
126.0374 1.0000000000000002 -151.65245086437125
127.0373 1.0 -151.86668086950596
128.0372 1.0 -152.0777610544621
129.0371 1.0 -152.28575897856126
130.037 1.0 -152.49074032365914
131.0369 1.0 -152.69276895742425
132.0368 1.0 -152.89190699414002
133.0367 1.0 -153.08821485313842
134.0366 1.0000000000000002 -153.28175131496974
135.0365 1.0 -153.4725735754065
136.0364 1.0 -153.66073729737653
137.0363 0.9999999999999999 -153.84629666091396
138.0362 1.0 -154.02930441121393
139.0361 1.0 -154.20981190487237
140.036 1.0 -154.3878691543881
141.0359 0.9999999999999999 -154.56352487100088
142.0358 0.9999999999999999 -154.7368265059364
143.0357 1.0 -154.90782029012468
144.0356 0.9999999999999999 -155.07655127245613
145.0355 1.0 -155.24306335663633
146.0354 1.0 -155.4073993366972
147.0353 0.9999999999999999 -155.56960093122103
148.0352 1.0 -155.72970881632935
149.0351 1.0 -155.8877626574877
150.035 1.0 -156.04380114017474
151.0349 1.0 -156.19786199946114
152.0348 1.0 -156.349982048543
153.0347 1.0 -156.5001972062713
154.0346 1.0 -156.6485425237178
155.0345 1.0 -156.79505220981542
156.0344 1.0 -156.9397596561108
157.0343 1.0 -157.08269746066225
158.0342 1.0 -157.22389745111866
159.0341 1.0 -157.36339070700996
160.034 1.0000000000000002 -157.50120758128037
161.0339 1.0 -157.63737772109383
162.0338 0.9999999999999999 -157.77193008793935
163.0337 1.0 -157.90489297706355
164.0336 0.9999999999999999 -158.0362940362556
165.0335 1.0 -158.16616028400972
166.0334 1.0 -158.29451812708825
167.0333 1.0 -158.42139337750848
168.0332 1.0 -158.54681126897415
169.0331 1.0000000000000002 -158.67079647277305
170.033 1.0 -158.79337311316
171.0329 1.0 -158.91456478224458
172.0328 1.0 -159.0343945544017
173.0327 1.0 -159.15288500022265
174.0326 1.0 -159.27005820002307
175.0325 0.9999999999999999 -159.3859357569243
176.0324 1.0 -159.50053880952356
177.0323 1.0 -159.61388804416708
178.0322 1.0 -159.72600370684154
179.0321 1.0 -159.83690561469638
180.032 0.9999999999999999 -159.94661316721064
181.0319 1.0 -160.05514535701698
182.0318 1.0000000000000002 -160.16252078039443
183.0317 0.9999999999999999 -160.26875764744204
184.0316 1.0 -160.37387379194425
185.0315 1.0 -160.47788668093884
186.0314 0.9999999999999999 -160.58081342399748
187.0313 1.0 -160.6826707822293
188.0312 1.0 -160.78347517701627
189.0311 1.0 -160.88324269849014
190.031 0.9999999999999999 -160.98198911375954
191.0309 1.0000000000000002 -161.07972987489555
192.0308 0.9999999999999998 -161.17648012668394
193.0307 1.0 -161.27225471415204
194.0306 0.9999999999999999 -161.36706818987787
195.0305 0.9999999999999999 -161.46093482108796
196.0304 0.9999999999999999 -161.5538685965523
197.0303 1.0000000000000002 -161.6458832332816
198.0302 1.0 -161.7369921830345
199.0301 1.0 -161.8272086386401
200.03 0.9999999999999999 -161.9165455401425
201.0299 1.0 -162.00501558077275
202.0298 1.0 -162.09263121275382
203.0297 0.9999999999999999 -162.17940465294382
204.0296 1.0 -162.2653478883232
205.0295 0.9999999999999999 -162.35047268133027
206.0294 1.0 -162.4347905750501
207.0293 1.0 -162.51831289826148
208.0292 0.9999999999999999 -162.6010507703465
209.0291 1.0 -162.68301510606676
210.029 1.0 -162.76421662021068
211.0289 0.9999999999999999 -162.8446658321155
212.0288 1.0 -162.92437307006878
213.0287 1.0 -163.0033484755915
214.0286 1.0 -163.08160200760844
215.0285 0.9999999999999999 -163.15914344650727
216.0284 1.0 -163.23598239809147
217.0283 1.0 -163.3121282974288
218.0282 1.0000000000000002 -163.3875904126
219.0281 1.0 -163.462377848349
220.028 1.0 -163.53649954963953
221.0279 1.0 -163.60996430511887
222.0278 1.0 -163.6827807504935
223.0277 1.0 -163.75495737181765
224.0276 0.9999999999999999 -163.8265025086982
225.0275 1.0 -163.89742435741834
226.0274 0.9999999999999999 -163.96773097398182
227.0273 1.0 -164.03743027708074
228.0272 1.0 -164.10653005098894
229.0271 1.0000000000000002 -164.17503794838274
230.027 1.0 -164.24296149309163
231.0269 0.9999999999999999 -164.3103080827808
232.0268 0.9999999999999999 -164.37708499156716
233.0267 1.0 -164.4432993725711
234.0266 1.0 -164.50895826040573
235.0265 1.0 -164.57406857360533
236.0264 0.9999999999999999 -164.63863711699454
237.0263 0.9999999999999998 -164.70267058400034
238.0262 1.0 -164.76617555890812
239.0261 1.0 -164.82915851906344
240.026 0.9999999999999999 -164.89162583702125
241.0259 1.0 -164.95358378264348
242.0258 0.9999999999999999 -165.01503852514713
243.0257 1.0 -165.07599613510348
244.0256 1.0000000000000002 -165.13646258639042
245.0255 1.0 -165.19644375809867
246.0254 1.0 -165.25594543639352
247.0253 1.0 -165.3149733163329
248.0252 1.0 -165.37353300364347
249.0251 0.9999999999999999 -165.4316300164554
250.025 1.0000000000000002 -165.48926978699686
251.0249 1.0000000000000002 -165.54645766325027
252.0248 0.9999999999999998 -165.60319891056977
253.0247 1.0 -165.65949871326234
254.0246 0.9999999999999998 -165.7153621761327
255.0245 1.0 -165.77079432599328
256.0244 0.9999999999999999 -165.82580011314008
257.0243 1.0 -165.88038441279537
258.0242 1.0 -165.93455202651793
259.0241 1.0 -165.98830768358195
260.024 1.0 -166.04165604232512
261.0239 1.0 -166.09460169146675
262.0238 1.0000000000000002 -166.14714915139712
263.0237 0.9999999999999999 -166.19930287543787
264.0236 0.9999999999999999 -166.25106725107523
265.0235 1.0000000000000002 -166.30244660116614
266.0234 1.0 -166.35344518511783
267.0233 1.0 -166.40406720004216
268.0232 1.0 -166.45431678188476
269.0231 1.0000000000000002 -166.50419800652983
270.023 1.0 -166.55371489088134
271.0229 1.0000000000000002 -166.60287139392082
272.0228 1.0000000000000002 -166.65167141774288
273.0227 1.0 -166.70011880856848
274.0226 1.0 -166.74821735773668
275.0225 1.0 -166.7959708026758
276.0224 1.0 -166.84338282785367
277.0223 1.0 -166.89045706570815
278.0222 1.0000000000000002 -166.93719709755828
279.0221 0.9999999999999999 -166.9836064544964
280.022 0.9999999999999999 -167.02968861826145
281.0219 1.0 -167.07544702209466
282.0218 0.9999999999999999 -167.1208850515773
283.0217 1.0 -167.1660060454511
284.0216 0.9999999999999999 -167.2108132964222
285.0215 1.0 -167.2553100519484
286.0214 1.0 -167.29949951501038
287.0213 0.9999999999999999 -167.3433848448674
288.0212 1.0 -167.38696915779767
289.0211 1.0 -167.43025552782376
290.021 1.0 -167.47324698742352
291.0209 1.0 -167.51594652822644
292.0208 1.0000000000000002 -167.55835710169657
293.0207 1.0 -167.60048161980157
294.0206 0.9999999999999999 -167.64232295566848
295.0205 1.0 -167.68388394422658
296.0204 1.0000000000000002 -167.72516738283764
297.0203 1.0 -167.76617603191366
298.0202 1.0000000000000002 -167.80691261552246
299.0201 0.9999999999999998 -167.8473798219818
300.02 0.9999999999999999 -167.88758030444143
301.0199 1.0 -167.9275166814542
302.0198 0.9999999999999999 -167.967191537536
303.0197 0.9999999999999999 -168.0066074237149
304.0196 1.0 -168.0457668580699
305.0195 1.0 -168.08467232625887
306.0194 0.9999999999999998 -168.12332628203706
307.0193 1.0000000000000002 -168.1617311477653
308.0192 1.0 -168.1998893149086
309.0191 1.0 -168.2378031445255
310.019 1.0 -168.27547496774787
311.0189 0.9999999999999999 -168.31290708625212
312.0188 1.0 -168.35010177272113
313.0187 0.9999999999999999 -168.3870612712978
314.0186 1.0 -168.42378779803005
315.0185 1.0 -168.46028354130766
316.0184 0.9999999999999999 -168.49655066229087
317.0183 1.0 -168.53259129533106
318.0182 1.0 -168.5684075483839
319.0181 0.9999999999999999 -168.60400150341465
320.018 1.0 -168.63937521679614
321.0179 1.0 -168.67453071969953
322.0178 1.0 -168.70947001847796
323.0177 0.9999999999999999 -168.74419509504304
324.0176 1.0 -168.7787079072349
325.0175 0.9999999999999999 -168.8130103891851
326.0174 1.0000000000000002 -168.84710445167352
327.0173 0.9999999999999999 -168.88099198247835
328.0172 1.0 -168.91467484672017
329.0171 0.9999999999999999 -168.9481548871998
330.017 1.0 -168.98143392473
331.0169 1.0000000000000002 -169.01451375846167
332.0168 1.0 -169.04739616620364
333.0167 0.9999999999999999 -169.0800829047375
334.0166 1.0 -169.11257571012666
335.0165 0.9999999999999998 -169.14487629801954
336.0164 0.9999999999999999 -169.17698636394832
337.0163 0.9999999999999999 -169.20890758362165
338.0162 1.0 -169.24064161321292
339.0161 1.0 -169.27219008964312
340.016 1.0 -169.30355463085888
341.0159 1.0 -169.33473683610603
342.0158 1.0 -169.36573828619794
343.0157 1.0 -169.39656054377966
344.0156 1.0 -169.4272051535875
345.0155 1.0 -169.45767364270398
346.0154 1.0000000000000002 -169.48796752080867
347.0153 1.0 -169.51808828042462
348.0152 1.0 -169.54803739716075
349.0151 1.0 -169.5778163299501
350.015 1.0 -169.60742652128397
351.0149 1.0 -169.63686939744235
352.0148 1.0 -169.66614636872043
353.0147 1.0 -169.69525882965107
354.0146 1.0 -169.7242081592241
355.0145 1.0 -169.7529957211014
356.0144 1.0 -169.78162286382883
357.0143 0.9999999999999999 -169.81009092104458
358.0142 1.0 -169.83840121168393
359.0141 1.0 -169.86655504018088
360.014 1.0 -169.89455369666632
361.0139 0.9999999999999999 -169.92239845716293
362.0138 0.9999999999999999 -169.95009058377727
363.0137 0.9999999999999999 -169.9776313248881
364.0136 0.9999999999999999 -170.00502191533246
365.0135 0.9999999999999999 -170.0322635765879
366.0134 1.0 -170.05935751695247
367.0133 1.0000000000000002 -170.0863049317215
368.0132 0.9999999999999999 -170.11310700336148
369.0131 1.0 -170.13976490168142
370.013 1.0 -170.16627978400123
371.0129 1.0 -170.1926527953176
372.0128 0.9999999999999999 -170.2188850684672
373.0127 1.0 -170.2449777242871
374.0126 1.0 -170.27093187177312
375.0125 0.9999999999999999 -170.2967486082352
376.0124 1.0 -170.32242901945062
377.0123 0.9999999999999999 -170.3479741798147
378.0122 1.0000000000000002 -170.37338515248936
379.0121 0.9999999999999999 -170.39866298954897
380.012 0.9999999999999999 -170.4238087321243
381.0119 1.0 -170.44882341054404
382.0118 1.0 -170.47370804447436
383.0117 1.0 -170.49846364305597
384.0116 1.0 -170.52309120503935
385.0115 0.9999999999999999 -170.54759171891783
386.0114 0.9999999999999999 -170.57196616305862
387.0113 1.0 -170.59621550583176
388.0112 1.0 -170.62034070573742
389.0111 1.0 -170.64434271153073
390.011 1.0 -170.6682224623453
391.0109 1.0 -170.6919808878145
392.0108 1.0 -170.71561890819103
393.0107 1.0 -170.7391374344646
394.0106 0.9999999999999999 -170.76253736847806
395.0105 0.9999999999999998 -170.78581960304163
396.0104 1.0 -170.8089850220454
397.0103 1.0 -170.8320345005702
398.0102 1.0 -170.85496890499695
399.0101 1.0 -170.8777890931142
400.01 0.9999999999999999 -170.9004959142241
401.0099 1.0 -170.92309020924705
402.0098 1.0 -170.9455728108244
403.0097 1.0 -170.96794454341992
404.0096 1.0 -170.99020622342002
405.0095 1.0 -171.01235865923178
406.0094 1.0 -171.0344026513803
407.0093 1.0 -171.05633899260425
408.0092 0.9999999999999999 -171.07816846795006
409.0091 1.0 -171.0998918548649
410.009 1.0000000000000002 -171.12150992328813
411.0089 1.0 -171.14302343574164
412.0088 0.9999999999999999 -171.1644331474186
413.0087 1.0 -171.18573980627139
414.0086 1.0 -171.20694415309762
415.0085 1.0 -171.22804692162572
416.0084 0.9999999999999999 -171.2490488385986
417.0083 1.0 -171.2699506238566
418.0082 1.0 -171.29075299041892
419.0081 0.9999999999999999 -171.31145664456426
420.008 1.0 -171.3320622859099
421.0079 0.9999999999999999 -171.35257060749015
422.0078 1.0 -171.37298229583325
423.0077 0.9999999999999999 -171.3932980310375
424.0076 1.0 -171.4135184868462
425.0075 1.0 -171.43364433072142
426.0074 1.0 -171.45367622391726
427.0073 1.0 -171.47361482155128
428.0072 1.0 -171.49346077267566
429.0071 1.0 -171.51321472034707
430.007 0.9999999999999998 -171.53287730169546
431.0069 1.0 -171.55244914799232
432.0068 0.9999999999999999 -171.57193088471752
433.0067 0.9999999999999999 -171.59132313162542
434.0066 1.0 -171.61062650281042
435.0065 0.9999999999999999 -171.62984160677098
436.0064 0.9999999999999998 -171.6489690464732
437.0063 1.0 -171.66800941941366
438.0062 1.0 -171.68696331768078
439.0061 1.0 -171.70583132801605
440.006 1.0 -171.72461403187413
441.0059 1.0 -171.74331200548204
442.0058 1.0 -171.76192581989775
443.0057 1.0 -171.78045604106794
444.0056 1.0 -171.79890322988487
445.0055 1.0 -171.81726794224264
446.0054 0.9999999999999999 -171.83555072909263
447.0053 1.0 -171.8537521364983
448.0052 1.0 -171.87187270568896
449.0051 0.9999999999999999 -171.8899129731133
450.005 1.0 -171.90787347049192
451.0049 0.9999999999999999 -171.92575472486908
452.0048 1.0 -171.94355725866401
453.0047 1.0 -171.9612815897215
454.0046 0.9999999999999999 -171.9789282313616
455.0045 1.0 -171.99649769242913
456.0044 1.0 -172.01399047734193
457.0043 0.9999999999999999 -172.03140708613913
458.0042 1.0000000000000002 -172.04874801452823
459.0041 0.9999999999999999 -172.066013753932
460.004 1.0 -172.0832047915345
461.0039 0.9999999999999999 -172.10032161032677
462.0038 1.0 -172.11736468915146
463.0037 1.0 -172.1343345027475
464.0036 1.0 -172.1512315217938
465.0035 1.0 -172.16805621295242
466.0034 1.0 -172.18480903891137
467.0033 1.0000000000000002 -172.20149045842672
468.0032 1.0 -172.21810092636412
469.0031 0.9999999999999998 -172.23464089374008
470.003 1.0 -172.2511108077624
471.0029 1.0 -172.2675111118701
472.0028 1.0 -172.28384224577343
473.0027 1.0 -172.30010464549233
474.0026 1.0 -172.3162987433955
475.0025 1.0 -172.33242496823817
476.0024 0.9999999999999999 -172.3484837451999
477.0023 1.0 -172.36447549592154
478.0022 0.9999999999999999 -172.38040063854217
479.0021 0.9999999999999999 -172.39625958773505
480.002 0.9999999999999999 -172.4120527547435
481.0019 0.9999999999999999 -172.42778054741643
482.0018 1.0000000000000002 -172.44344337024287
483.0017 1.0000000000000002 -172.4590416243868
484.0016 1.0 -172.474575707721
485.0015 0.9999999999999999 -172.4900460148606
486.0014 1.0 -172.50545293719668
487.0013 0.9999999999999999 -172.52079686292862
488.0012 1.0 -172.53607817709684
489.0011 1.0 -172.55129726161468
490.001 1.0 -172.5664544953001
491.0009 0.9999999999999998 -172.5815502539069
492.0008 1.0 -172.5965849101555
493.0007 0.9999999999999999 -172.61155883376378
494.0006 1.0 -172.62647239147674
495.0005 1.0 -172.64132594709662
496.0004 1.0 -172.65611986151222
497.0003 1.0 -172.67085449272793
498.0002 1.0 -172.68553019589254
499.0001 1.0000000000000002 -172.70014732332743
500.0 1.0 -172.71470622455485
