# MHz S MA R 50
!   freq        S11       
0.050000  0.98310  179.51
1.049900  0.97653  169.74
2.049800  0.97827  160.15
3.049700  0.97305  150.95
4.049600  0.97098  142.09
5.049500  0.96873  133.86
6.049400  0.97038  125.97
7.049300  0.96859  118.67
8.049200  0.96582  111.94
9.049100  0.96693  105.63
10.049000  0.96682   99.79
11.048900  0.96588   94.48
12.048800  0.96797   89.43
13.048700  0.96582   85.00
14.048600  0.96633   80.81
15.048500  0.96615   76.94
16.048400  0.96709   73.41
17.048300  0.96964   70.12
18.048200  0.96768   66.95
19.048100  0.97025   64.24
20.048000  0.97028   61.53
21.047900  0.97046   59.04
22.047800  0.97105   56.70
23.047700  0.97096   54.63
24.047600  0.97327   52.62
25.047500  0.97563   50.78
26.047400  0.97343   49.01
27.047300  0.97384   47.31
28.047200  0.97428   45.73
29.047100  0.97430   44.36
30.047000  0.97529   42.91
31.046900  0.97496   41.57
32.046800  0.97714   40.36
33.046700  0.97760   39.12
34.046600  0.97831   37.97
35.046500  0.97679   36.90
36.046400  0.97784   35.89
37.046300  0.97819   34.91
38.046200  0.97906   33.97
39.046100  0.97934   33.02
40.046000  0.97926   32.27
41.045900  0.97979   31.36
42.045800  0.97894   30.64
43.045700  0.98162   29.88
44.045600  0.98141   29.16
45.045500  0.98017   28.45
46.045400  0.98070   27.78
47.045300  0.98035   27.10
48.045200  0.98260   26.49
49.045100  0.98087   25.90
50.045000  0.98253   25.34
51.044900  0.98173   24.75
52.044800  0.98241   24.22
53.044700  0.98108   23.70
54.044600  0.98275   23.16
55.044500  0.98276   22.64
56.044400  0.98238   22.18
57.044300  0.98429   21.75
58.044200  0.98375   21.30
59.044100  0.98344   20.88
60.044000  0.98448   20.41
61.043900  0.98249   20.04
62.043800  0.98309   19.58
63.043700  0.98408   19.18
64.043600  0.98303   18.87
65.043500  0.98390   18.51
66.043400  0.98604   18.21
67.043300  0.98457   17.77
68.043200  0.98440   17.42
69.043100  0.98597   17.08
70.043000  0.98427   16.74
71.042900  0.98529   16.53
72.042800  0.98424   16.09
73.042700  0.98595   15.88
74.042600  0.98447   15.54
75.042500  0.98568   15.28
76.042400  0.98596   15.00
77.042300  0.98493   14.64
78.042200  0.98588   14.46
79.042100  0.98692   14.11
80.042000  0.98651   13.92
81.041900  0.98496   13.59
82.041800  0.98573   13.42
83.041700  0.98588   13.11
84.041600  0.98500   12.83
85.041500  0.98501   12.59
86.041400  0.98708   12.34
87.041300  0.98556   12.16
88.041200  0.98465   11.92
89.041100  0.98588   11.68
90.041000  0.98587   11.50
91.040900  0.98547   11.31
92.040800  0.98643   11.01
93.040700  0.98597   10.84
94.040600  0.98555   10.63
95.040500  0.98577   10.37
96.040400  0.98571   10.17
97.040300  0.98631    9.97
98.040200  0.98601    9.89
99.040100  0.98731    9.61
100.040000  0.98421    9.45
101.039900  0.98561    9.31
102.039800  0.98529    9.18
103.039700  0.98636    8.91
104.039600  0.98775    8.73
105.039500  0.98647    8.50
106.039400  0.98667    8.42
107.039300  0.98489    8.25
108.039200  0.98492    8.03
109.039100  0.98644    7.89
110.039000  0.98559    7.75
111.038900  0.98550    7.58
112.038800  0.98687    7.46
113.038700  0.98588    7.22
114.038600  0.98513    7.04
115.038500  0.98448    6.96
116.038400  0.98518    6.79
117.038300  0.98573    6.62
118.038200  0.98687    6.54
119.038100  0.98550    6.27
120.038000  0.98497    6.11
121.037900  0.98545    6.11
122.037800  0.98573    5.90
123.037700  0.98677    5.84
124.037600  0.98405    5.68
125.037500  0.98441    5.51
126.037400  0.98445    5.27
127.037300  0.98440    5.20
128.037200  0.98456    5.12
129.037100  0.98524    4.92
130.037000  0.98156    4.86
131.036900  0.98313    4.59
132.036800  0.98209    4.56
133.036700  0.98555    4.39
134.036600  0.98340    4.36
135.036500  0.98359    4.17
136.036400  0.98330    4.02
137.036300  0.98189    3.98
138.036200  0.98109    3.84
139.036100  0.98158    3.66
140.036000  0.98061    3.66
141.035900  0.98136    3.51
142.035800  0.98047    3.40
143.035700  0.98177    3.31
144.035600  0.98031    3.14
145.035500  0.98006    3.06
146.035400  0.98165    2.88
147.035300  0.98171    2.74
148.035200  0.97999    2.67
149.035100  0.97992    2.62
150.035000  0.98010    2.49
151.034900  0.97862    2.36
152.034800  0.97847    2.30
153.034700  0.97960    2.19
154.034600  0.97789    2.09
155.034500  0.97861    1.98
156.034400  0.97642    1.82
157.034300  0.97638    1.78
158.034200  0.97655    1.68
159.034100  0.97716    1.56
160.034000  0.97601    1.46
161.033900  0.97521    1.33
162.033800  0.97562    1.27
163.033700  0.97550    1.23
164.033600  0.97541    1.18
165.033500  0.97457    1.08
166.033400  0.97353    0.88
167.033300  0.97391    0.85
168.033200  0.97383    0.81
169.033100  0.97406    0.63
170.033000  0.97280    0.66
171.032900  0.97294    0.55
172.032800  0.97230    0.51
173.032700  0.97138    0.44
174.032600  0.97352    0.28
175.032500  0.97162    0.27
176.032400  0.97156    0.13
177.032300  0.96989    0.07
178.032200  0.97083    0.01
179.032100  0.97090   -0.10
180.032000  0.97135   -0.17
181.031900  0.96955   -0.18
182.031800  0.96985   -0.40
183.031700  0.97001   -0.39
184.031600  0.96924   -0.47
185.031500  0.96861   -0.49
186.031400  0.96880   -0.64
187.031300  0.96841   -0.68
188.031200  0.96887   -0.76
189.031100  0.96783   -0.79
190.031000  0.96742   -0.91
191.030900  0.96833   -0.99
192.030800  0.96716   -0.95
193.030700  0.96686   -1.02
194.030600  0.96734   -1.17
195.030500  0.96809   -1.23
196.030400  0.96686   -1.24
197.030300  0.96672   -1.38
198.030200  0.96700   -1.49
199.030100  0.96562   -1.50
200.030000  0.96578   -1.53
201.029900  0.96496   -1.55
202.029800  0.96459   -1.60
203.029700  0.96571   -1.81
204.029600  0.96569   -1.79
205.029500  0.96415   -1.80
206.029400  0.96499   -1.90
207.029300  0.96477   -1.99
208.029200  0.96460   -2.01
209.029100  0.96404   -2.07
210.029000  0.96365   -2.24
211.028900  0.96309   -2.16
212.028800  0.96459   -2.25
213.028700  0.96348   -2.35
214.028600  0.96282   -2.41
215.028500  0.96322   -2.41
216.028400  0.96327   -2.39
217.028300  0.96345   -2.56
218.028200  0.96250   -2.57
219.028100  0.96245   -2.67
220.028000  0.96255   -2.71
221.027900  0.96196   -2.74
222.027800  0.96268   -2.88
223.027700  0.96302   -2.93
224.027600  0.96257   -3.00
225.027500  0.96204   -3.04
226.027400  0.96095   -3.10
227.027300  0.96040   -3.15
228.027200  0.96126   -3.16
229.027100  0.96002   -3.24
230.027000  0.96164   -3.29
231.026900  0.96066   -3.28
232.026800  0.96101   -3.40
233.026700  0.96048   -3.49
234.026600  0.96021   -3.46
235.026500  0.96159   -3.59
236.026400  0.95986   -3.58
237.026300  0.96040   -3.67
238.026200  0.95958   -3.64
239.026100  0.96117   -3.76
240.026000  0.96084   -3.93
241.025900  0.95914   -3.81
242.025800  0.96010   -3.84
243.025700  0.96034   -4.00
244.025600  0.96071   -3.96
245.025500  0.96000   -4.06
246.025400  0.95973   -4.11
247.025300  0.95913   -4.12
248.025200  0.96029   -4.22
249.025100  0.95957   -4.25
250.025000  0.95927   -4.26
251.024900  0.95825   -4.31
252.024800  0.95850   -4.35
253.024700  0.95830   -4.41
254.024600  0.95840   -4.44
255.024500  0.95909   -4.54
256.024400  0.95883   -4.52
257.024300  0.95911   -4.66
258.024200  0.95955   -4.72
259.024100  0.95889   -4.75
260.024000  0.95912   -4.76
261.023900  0.95888   -4.81
262.023800  0.95894   -4.87
263.023700  0.95878   -4.95
264.023600  0.95806   -4.81
265.023500  0.95862   -5.07
266.023400  0.96045   -5.13
267.023300  0.95895   -5.14
268.023200  0.95748   -5.16
269.023100  0.95818   -5.19
270.023000  0.95907   -5.29
271.022900  0.95884   -5.33
272.022800  0.95945   -5.31
273.022700  0.95741   -5.39
274.022600  0.96017   -5.51
275.022500  0.95769   -5.50
276.022400  0.95855   -5.55
277.022300  0.95882   -5.61
278.022200  0.95805   -5.67
279.022100  0.95938   -5.68
280.022000  0.95856   -5.79
281.021900  0.95988   -5.77
282.021800  0.95939   -5.79
283.021700  0.95685   -5.85
284.021600  0.95893   -5.92
285.021500  0.95838   -5.96
286.021400  0.95808   -6.02
287.021300  0.95879   -6.11
288.021200  0.95738   -6.00
289.021100  0.95864   -6.20
290.021000  0.95804   -6.24
291.020900  0.95804   -6.16
292.020800  0.95856   -6.29
293.020700  0.95853   -6.28
294.020600  0.95886   -6.35
295.020500  0.95795   -6.42
296.020400  0.95814   -6.49
297.020300  0.95888   -6.52
298.020200  0.95878   -6.58
299.020100  0.95829   -6.61
300.020000  0.95771   -6.59
301.019900  0.95677   -6.67
302.019800  0.95830   -6.81
303.019700  0.95748   -6.79
304.019600  0.95734   -6.85
305.019500  0.95799   -6.89
306.019400  0.95736   -6.89
307.019300  0.95741   -6.95
308.019200  0.95772   -7.08
309.019100  0.95710   -6.95
310.019000  0.95820   -7.02
311.018900  0.95827   -7.10
312.018800  0.95841   -7.34
313.018700  0.95741   -7.19
314.018600  0.95703   -7.30
315.018500  0.95745   -7.34
316.018400  0.95631   -7.31
317.018300  0.95648   -7.39
318.018200  0.95638   -7.37
319.018100  0.95760   -7.53
320.018000  0.95849   -7.54
321.017900  0.95913   -7.57
322.017800  0.95850   -7.57
323.017700  0.95672   -7.60
324.017600  0.95680   -7.66
325.017500  0.95713   -7.68
326.017400  0.95786   -7.72
327.017300  0.95796   -7.74
328.017200  0.95766   -7.84
329.017100  0.95904   -7.86
330.017000  0.95771   -7.85
331.016900  0.95648   -7.96
332.016800  0.95860   -8.03
333.016700  0.95730   -7.96
334.016600  0.95854   -8.13
335.016500  0.95815   -8.15
336.016400  0.95845   -8.24
337.016300  0.95798   -8.20
338.016200  0.95876   -8.26
339.016100  0.95855   -8.24
340.016000  0.95756   -8.33
341.015900  0.95809   -8.47
342.015800  0.95908   -8.40
343.015700  0.95721   -8.41
344.015600  0.95852   -8.54
345.015500  0.95802   -8.47
346.015400  0.95989   -8.60
347.015300  0.95753   -8.60
348.015200  0.95843   -8.59
349.015100  0.95793   -8.66
350.015000  0.95885   -8.73
351.014900  0.95926   -8.79
352.014800  0.95843   -8.87
353.014700  0.95878   -8.89
354.014600  0.95943   -8.85
355.014500  0.95910   -9.00
356.014400  0.95801   -9.00
357.014300  0.95925   -9.04
358.014200  0.95988   -9.10
359.014100  0.95889   -9.17
360.014000  0.95893   -9.04
361.013900  0.95819   -9.20
362.013800  0.95974   -9.25
363.013700  0.95856   -9.32
364.013600  0.95911   -9.31
365.013500  0.95973   -9.39
366.013400  0.95828   -9.42
367.013300  0.95883   -9.41
368.013200  0.96021   -9.45
369.013100  0.95865   -9.51
370.013000  0.95874   -9.52
371.012900  0.95860   -9.66
372.012800  0.95908   -9.66
373.012700  0.95939   -9.71
374.012600  0.96002   -9.74
375.012500  0.96012   -9.75
376.012400  0.95981   -9.76
377.012300  0.96007   -9.79
378.012200  0.95971   -9.92
379.012100  0.96088   -9.96
380.012000  0.96036   -9.90
381.011900  0.95938  -10.00
382.011800  0.95966  -10.03
383.011700  0.96049  -10.04
384.011600  0.95940  -10.05
385.011500  0.95999  -10.18
386.011400  0.95860  -10.18
387.011300  0.96096  -10.23
388.011200  0.95978  -10.26
389.011100  0.95896  -10.28
390.011000  0.96038  -10.32
391.010900  0.96142  -10.42
392.010800  0.96052  -10.40
393.010700  0.96164  -10.49
394.010600  0.95850  -10.52
395.010500  0.96089  -10.56
396.010400  0.96041  -10.57
397.010300  0.95991  -10.68
398.010200  0.96062  -10.57
399.010100  0.96219  -10.69
400.010000  0.96185  -10.70
401.009900  0.96012  -10.75
402.009800  0.96177  -10.81
403.009700  0.96064  -10.89
404.009600  0.96143  -10.88
405.009500  0.96044  -10.90
406.009400  0.96070  -10.96
407.009300  0.96027  -11.09
408.009200  0.96143  -10.99
409.009100  0.96141  -11.04
410.009000  0.96079  -11.15
411.008900  0.96073  -11.17
412.008800  0.96021  -11.15
413.008700  0.96042  -11.28
414.008600  0.96276  -11.35
415.008500  0.96092  -11.35
416.008400  0.95991  -11.31
417.008300  0.96178  -11.38
418.008200  0.96179  -11.36
419.008100  0.96184  -11.48
420.008000  0.96031  -11.49
421.007900  0.96087  -11.55
422.007800  0.96085  -11.60
423.007700  0.96160  -11.67
424.007600  0.96349  -11.77
425.007500  0.96392  -11.72
426.007400  0.96353  -11.73
427.007300  0.96114  -11.83
428.007200  0.96164  -11.81
429.007100  0.96200  -11.77
430.007000  0.96084  -11.83
431.006900  0.96196  -11.97
432.006800  0.96196  -11.99
433.006700  0.96191  -11.96
434.006600  0.96271  -12.07
435.006500  0.96131  -12.12
436.006400  0.96360  -12.08
437.006300  0.96345  -12.09
438.006200  0.96434  -12.28
439.006100  0.96323  -12.24
440.006000  0.96193  -12.31
441.005900  0.96209  -12.34
442.005800  0.96330  -12.37
443.005700  0.96344  -12.38
444.005600  0.96380  -12.45
445.005500  0.96440  -12.43
446.005400  0.96284  -12.46
447.005300  0.96403  -12.53
448.005200  0.96356  -12.53
449.005100  0.96336  -12.59
450.005000  0.96362  -12.60
451.004900  0.96301  -12.61
452.004800  0.96363  -12.67
453.004700  0.96337  -12.70
454.004600  0.96294  -12.77
455.004500  0.96299  -12.83
456.004400  0.96375  -12.85
457.004300  0.96480  -12.91
458.004200  0.96537  -12.89
459.004100  0.96299  -13.08
460.004000  0.96436  -13.05
461.003900  0.96321  -13.03
462.003800  0.96453  -13.00
463.003700  0.96418  -13.14
464.003600  0.96448  -13.19
465.003500  0.96438  -13.15
466.003400  0.96460  -13.27
467.003300  0.96309  -13.21
468.003200  0.96366  -13.33
469.003100  0.96237  -13.24
470.003000  0.96363  -13.41
471.002900  0.96478  -13.39
472.002800  0.96411  -13.50
473.002700  0.96455  -13.49
474.002600  0.96489  -13.51
475.002500  0.96588  -13.58
476.002400  0.96548  -13.57
477.002300  0.96482  -13.56
478.002200  0.96426  -13.69
479.002100  0.96696  -13.78
480.002000  0.96718  -13.75
481.001900  0.96564  -13.79
482.001800  0.96544  -13.86
483.001700  0.96556  -13.79
484.001600  0.96646  -13.85
485.001500  0.96560  -13.91
486.001400  0.96630  -13.94
487.001300  0.96558  -13.98
488.001200  0.96602  -14.05
489.001100  0.96621  -13.97
490.001000  0.96500  -14.13
491.000900  0.96674  -14.07
492.000800  0.96641  -14.12
493.000700  0.96648  -14.21
494.000600  0.96620  -14.20
495.000500  0.96779  -14.35
496.000400  0.96589  -14.29
497.000300  0.96655  -14.29
498.000200  0.96773  -14.46
499.000100  0.96774  -14.47
500.000000  0.96529  -14.36
