!Created with skrf (http://scikit-rf.org).
# MHz S MA R 50.0 
!freq magS11 angS11
0.05 0.9829092655892037 179.51049083964176
1.0499 0.982812770427547 169.7483011345391
2.0498 0.9825488979413884 160.13081163500595
3.0497 0.9821390533793982 150.7837887643455
4.0496 0.9816137496467405 141.81207853075804
5.0495 0.9810074350763481 133.29438923795433
6.0494 0.9803537307159473 125.28208835211018
7.0493 0.9796820375221367 117.80127511669748
8.0492 0.9790157866142118 110.85690150597458
9.0491 0.9783720855048315 104.43771617220193
10.049 0.9777622856375218 98.52110550830217
11.0489 0.9771930040862384 93.07728771334381
12.0488 0.9766672551968288 88.07264056332463
13.0487 0.9761854899343803 83.47216022777324
14.0486 0.975746453272098 79.2411630362305
15.0485 0.9753478415223347 75.34638362240551
16.0484 0.9749867787067928 71.75662162282829
17.0483 0.9746601454194448 68.44306776959566
18.0482 0.9743647952327813 65.37941279800398
19.0481 0.9740976894149296 62.54181637258479
20.048 0.9738559745578527 59.90879122620394
21.0479 0.9736370216633888 57.46104056959396
22.0478 0.973438440105615 55.18127413339951
23.0477 0.9732580758756965 53.05401913590985
24.0476 0.9730940005294607 51.065436176350175
25.0475 0.9729444951116589 49.20314579638816
26.0474 0.9728080318277594 47.45606864408474
27.0473 0.9726832552034631 45.814280372946094
28.0472 0.9725689637786286 44.268881293108265
29.0471 0.9724640929242973 42.81188013482743
30.047 0.9723676990752229 41.43609092860767
31.0469 0.9722789454834533 40.135041843653504
32.0468 0.9721970894847075 38.90289478423094
33.0467 0.9721214712035124 37.734374573658265
34.0466 0.9720515035883901 36.62470662641656
35.0465 0.9719866636533951 35.56956209992848
36.0464 0.9719264847994284 34.56500961613614
37.0463 0.9718705500930455 33.60747274134484
38.0462 0.9718184863886651 32.69369250641248
39.0461 0.971769959190176 31.820694335876734
40.046 0.9717246681585998 30.985758833000332
41.0459 0.9716823431829832 30.186395937764964
42.0458 0.9716427409416037 29.42032203683215
43.0457 0.9716056418896594 28.685439658959783
44.0456 0.971570847617812 27.97981943698154
45.0455 0.9715381785332244 27.30168405893698
46.0454 0.9715074718211449 26.64939396697983
47.0453 0.9714785796507069 26.0214345939537
48.0452 0.9714513675934713 25.416404954610798
49.0451 0.9714257132274966 24.833007431906545
50.045 0.9714015049033603 24.270038619114946
51.0449 0.9713786406517279 23.726381096099338
52.0448 0.9713570272147889 23.200996033314514
53.0447 0.9713365791862338 22.692916530329015
54.0446 0.971317218246462 22.201241607122157
55.0445 0.9712988724814722 21.725130776366743
56.0444 0.971281475775379 21.26379913356632
57.0443 0.9712649672678055 20.816512909450037
58.0442 0.9712492908685278 20.38258543559457
59.0441 0.9712343948227027 19.961373479972146
60.044 0.9712202313208655 19.552273914128044
61.0439 0.9712067561485992 19.15472067807063
62.0438 0.9711939283714129 18.768182012791556
63.0437 0.971181710050904 18.392157933698993
64.0436 0.97117006598877 18.026177921201086
65.0435 0.9711589634956299 17.669798807276795
66.0434 0.9711483721819895 17.322602839160034
67.0433 0.9711382637689917 16.9841959032823
68.0432 0.9711286119168694 16.654205894402104
69.0431 0.9711193920692578 16.332281216426306
70.043 0.971110581311732 16.01808940282514
71.0429 0.9711021582431246 15.71131584578046
72.0428 0.9710941028583319 15.411662624306368
73.0427 0.9710863964414659 15.118847422558773
74.0426 0.9710790214683357 14.83260253041977
75.0425 0.9710719615173404 14.552673919219009
76.0424 0.9710652011879731 14.27882038614509
77.0423 0.9710587260262002 14.010812761518983
78.0422 0.971052522456072 13.748433173654076
79.0421 0.9710465777169817 13.491474366522652
80.042 0.9710408798060489 13.239739065892953
81.0419 0.9710354174251621 12.99303938999935
82.0418 0.9710301799322534 12.751196301166411
83.0417 0.9710251572964305 12.5140390951303
84.0416 0.9710203400566225 12.281404925090621
85.0415 0.9710157192834287 12.053138357788386
86.0414 0.9710112865438963 11.829090959141226
87.0413 0.9710070338689697 11.609120907181183
88.0412 0.9710029537233877 11.39309263023295
89.0411 0.9709990389778216 11.180876468445637
90.041 0.970995282883063 10.972348356949398
91.0409 0.970991679046098 10.767389529051984
92.0408 0.9709882214079062 10.565886238020994
93.0407 0.9709849042228512 10.367729496115944
94.0406 0.9709817220395295 10.172814829642476
95.0405 0.9709786696829621 9.981042048899212
96.0404 0.9709757422380279 9.792315031977159
97.0403 0.9709729350340339 9.60654152145357
98.0402 0.9709702436303413 9.423632933096549
99.0401 0.97096766380296 9.243504175764901
100.04 0.9709651915320437 9.066073481750182
101.0399 0.9709628229902154 8.891262246864677
102.0398 0.9709605545316566 8.718994879631653
103.0397 0.9709583826819128 8.54919865898191
104.0396 0.9709563041283548 8.381803599904568
105.0395 0.9709543157112513 8.216742326540801
106.0394 0.9709524144154091 8.053949952245596
107.0393 0.9709505973623386 7.893363966177513
108.0392 0.9709488618029086 7.734924126007213
109.0391 0.970947205110455 7.578572356364741
110.039 0.9709456247743135 7.424252652672027
111.0389 0.9709441183937432 7.27191099003176
112.0388 0.9709426836722211 7.121495236866284
113.0387 0.9709413184120721 6.972955073021351
114.0386 0.9709400205094235 6.8262419120685776
115.0385 0.9709387879494518 6.6813088275586745
116.0384 0.9709376188019094 6.538110482993854
117.0383 0.9709365112169107 6.396603065303126
118.0382 0.9709354634209586 6.256744221618568
119.0381 0.9709344737131987 6.118492999163688
120.038 0.970933540461884 5.981809788077185
121.0379 0.9709326621010402 5.846656267006736
122.0378 0.970931837127315 5.712995351318179
123.0377 0.9709310640970014 5.58079114377488
124.0376 0.9709303416232251 5.4500088875513635
125.0375 0.9709296683732838 5.320614921453901
126.0374 0.9709290430661319 5.192576637228183
127.0373 0.9709284644699985 5.065862438841984
128.0372 0.9709279314001322 4.9404417036372985
129.0371 0.9709274427166661 4.816284745252798
130.037 0.9709269973225942 4.693362778223654
131.0369 0.9709265941618516 4.571647884170837
132.0368 0.9709262322174977 4.451112979497729
133.0367 0.9709259105099881 4.33173178451628
134.0366 0.9709256280955378 4.213478793929792
135.0365 0.9709253840645645 4.0963292486032445
136.0364 0.9709251775402151 3.980259108556538
137.0363 0.9709250076769577 3.8652450271192897
138.0362 0.9709248736592504 3.7512643261894967
139.0361 0.9709247747002738 3.6382949725416016
140.036 0.9709247100407222 3.526315555132518
141.0359 0.9709246789476574 3.4153052633570193
142.0358 0.9709246807134171 3.305243866206608
143.0357 0.9709247146545716 3.196111692288488
144.0356 0.970924780110937 3.0878896106634963
145.0355 0.9709248764446285 2.9805590124644104
146.0354 0.9709250030391617 2.8741017932576307
147.0353 0.9709251592985956 2.7685003361136507
148.0352 0.9709253446467128 2.6637374953533333
149.0351 0.9709255585262421 2.559796580938742
150.035 0.9709258003981105 2.4566613434790967
151.0349 0.9709260697407351 2.3543159598236185
152.0348 0.9709263660493433 2.252745019214905
153.0347 0.9709266888353248 2.151933509977447
154.0346 0.9709270376256114 2.0518668067174795
155.0345 0.9709274119620863 1.952530658011281
156.0344 0.9709278114010175 1.8539111745606238
157.0343 0.9709282355125171 1.7559948177945193
158.0342 0.9709286838800232 1.6587683888981404
159.0341 0.9709291560998058 1.562219018250134
160.034 0.9709296517804912 1.4663341552508566
161.0339 0.97093017054261 1.3711015585248088
162.0338 0.9709307120181613 1.2765092864811995
163.0337 0.970931275850198 1.1825456882176788
164.0336 0.9709318616924267 1.0891993947526353
165.0335 0.9709324692088268 0.9964593105723928
166.0334 0.9709330980732841 0.9043146054801724
167.0333 0.9709337479692391 0.8127547067344489
168.0332 0.9709344185893514 0.7217692914646607
169.0331 0.9709351096351758 0.6313482793530367
170.033 0.9709358208168523 0.5414818255716957
171.0329 0.97093655185281 0.45216031396474277
172.0328 0.97093730246948 0.3633743504654645
173.0327 0.9709380724010227 0.27511475673927216
174.0326 0.9709388613890636 0.18737256404339753
175.0325 0.9709396691824406 0.10013900729485967
176.0324 0.970940495536961 0.013405519338368399
177.0323 0.9709413402151689 -0.07283627459345596
178.0322 0.970942202986119 -0.1585945622351933
179.0321 0.9709430836251626 -0.24387734946605658
180.032 0.9709439819137379 -0.32869246531658525
181.0319 0.9709448976391731 -0.41304756681105625
182.0318 0.970945830594492 -0.4969501436518592
183.0317 0.9709467805782307 -0.5804075227518818
184.0316 0.9709477473942584 -0.6634268726205219
185.0315 0.9709487308516072 -0.746015207608859
186.0314 0.970949730764307 -0.8281793920192639
187.0313 0.9709507469512265 -0.9099261440843448
188.0312 0.9709517792359198 -0.9912620398201781
189.0311 0.9709528274464799 -1.0721935167583252
190.031 0.9709538914153965 -1.1527268775611732
191.0309 0.9709549709794183 -1.2328682935246333
192.0308 0.9709560659794224 -1.3126238079724761
193.0307 0.9709571762602854 -1.3919993395460528
194.0306 0.9709583016707627 -1.4710006853932749
195.0305 0.970959442063368 -1.5496335242601467
196.0304 0.9709605972942609 -1.6279034194886903
197.0303 0.9709617672231359 -1.705815821924263
198.0302 0.9709629517131161 -1.7833760727355388
199.0301 0.9709641506306506 -1.8605894061502113
200.03 0.9709653638454157 -1.9374609521092845
201.0299 0.9709665912302192 -2.0139957388428336
202.0298 0.9709678326609077 -2.090198695369831
203.0297 0.970969088016277 -2.1660746539247846
204.0296 0.9709703571779875 -2.241628352313505
205.0295 0.970971640030479 -2.3168644362004653
206.0294 0.9709729364608912 -2.3917874613301735
207.0293 0.9709742463589859 -2.4664018956845273
208.0292 0.9709755696170712 -2.5407121215785486
209.0291 0.9709769061299295 -2.614722437696317
210.029 0.9709782557947467 -2.688437061069258
211.0289 0.9709796185110442 -2.7618601289985554
212.0288 0.9709809941806135 -2.834995700923553
213.0287 0.9709823827074514 -2.9078477602380195
214.0286 0.9709837839977007 -2.980420216055679
215.0285 0.9709851979595876 -3.0527169049270717
216.0284 0.9709866245033664 -3.1247415925088236
217.0283 0.9709880635412625 -3.196497975187275
218.0282 0.9709895149874187 -3.267989681657667
219.0281 0.9709909787578423 -3.339220274460347
220.028 0.9709924547703551 -3.4101932514754387
221.0279 0.9709939429445439 -3.480912047377148
222.0278 0.9709954432017128 -3.551380035049058
223.0277 0.9709969554648376 -3.6216005269616054
224.0276 0.9709984796585202 -3.6915767765129393
225.0275 0.971000015708946 -3.7613119793342094
226.0274 0.971001563543842 -3.8308092745604196
227.0273 0.9710031230924353 -3.9000717460680057
228.0272 0.9710046942854145 -3.969102423679962
229.0271 0.9710062770548914 -4.037904284339644
230.027 0.9710078713343624 -4.106480253254108
231.0269 0.9710094770586752 -4.174833205008021
232.0268 0.9710110941639915 -4.242965964648827
233.0267 0.9710127225877536 -4.310881308744264
234.0266 0.9710143622686526 -4.37858196641283
235.0265 0.9710160131465956 -4.446070620328193
236.0264 0.971017675162675 -4.513349907698137
237.0263 0.9710193482591378 -4.580422421218934
238.0262 0.9710210323793576 -4.647290710005768
239.0261 0.9710227274678052 -4.713957280499958
240.026 0.9710244334700218 -4.7804245973536315
241.0259 0.9710261503325914 -4.84669508429248
242.0258 0.9710278780031162 -4.912771124957291
243.0257 0.9710296164301906 -4.978655063724753
244.0256 0.9710313655633755 -5.044349206508308
245.0255 0.9710331253531772 -5.109855821539323
246.0254 0.9710348957510216 -5.175177140129531
247.0253 0.9710366767092337 -5.240315357414873
248.0252 0.9710384681810145 -5.305272633081532
249.0251 0.9710402701204199 -5.370051092074566
250.025 0.9710420824823415 -5.434652825289594
251.0249 0.9710439052224841 -5.499079890248055
252.0248 0.9710457382973477 -5.5633343117565
253.0247 0.971047581664209 -5.627418082550266
254.0246 0.971049435281101 -5.691333163922116
255.0245 0.9710512991067971 -5.755081486336058
256.0244 0.9710531731007923 -5.818664950026962
257.0243 0.9710550572232866 -5.882085425586173
258.0242 0.971056951435169 -5.945344754533588
259.0241 0.9710588556980001 -6.008444749876589
260.024 0.9710607699739976 -6.071387196656109
261.0239 0.9710626942260208 -6.134173852480174
262.0238 0.9710646284175547 -6.196806448045384
263.0237 0.9710665725126977 -6.25928668764645
264.0236 0.9710685264761453 -6.32161624967427
265.0235 0.9710704902731778 -6.383796787102785
266.0234 0.9710724638696461 -6.445829927964855
267.0233 0.9710744472319598 -6.5077172758175585
268.0232 0.9710764403270727 -6.569460410197071
269.0231 0.9710784431224728 -6.6310608870634615
270.023 0.9710804555861681 -6.692520239235682
271.0229 0.9710824776866765 -6.753839976816929
272.0228 0.9710845093930134 -6.815021587610683
273.0227 0.9710865506746812 -6.876066537527643
274.0226 0.971088601501658 -6.936976270983782
275.0225 0.9710906618443873 -6.997752211289804
276.0224 0.9710927316737673 -7.058395761032109
277.0223 0.9710948109611419 -7.118908302445557
278.0222 0.9710968996782897 -7.179291197778262
279.0221 0.9710989977974155 -7.239545789648555
280.022 0.9711011052911391 -7.299673401394301
281.0219 0.9711032221324896 -7.3596753374148065
282.0218 0.9711053482948931 -7.419552883505531
283.0217 0.9711074837521659 -7.479307307185682
284.0216 0.9711096284785065 -7.5389398580188995
285.0215 0.9711117824484844 -7.598451767927276
286.0214 0.971113945637037 -7.65784425149879
287.0213 0.9711161180194576 -7.717118506288314
288.0212 0.9711182995713887 -7.776275713112445
289.0211 0.9711204902688165 -7.835317036338138
290.021 0.9711226900880612 -7.8942436241655
291.0209 0.9711248990057711 -7.953056608904698
292.0208 0.9711271169989161 -8.011757107247247
293.0207 0.9711293440447792 -8.070346220531732
294.0206 0.9711315801209522 -8.128825035004153
295.0205 0.9711338252053278 -8.187194622072981
296.0204 0.9711360792760927 -8.245456038559082
297.0203 0.9711383423117238 -8.303610326940596
298.0202 0.9711406142909795 -8.361658515592882
299.0201 0.9711428951928962 -8.419601619023737
300.02 0.9711451849967806 -8.477440638103861
301.0199 0.9711474836822054 -8.535176560292772
302.0198 0.9711497912290038 -8.592810359860238
303.0197 0.9711521076172629 -8.650342998103381
304.0196 0.97115443282732 -8.707775423559465
305.0195 0.9711567668397569 -8.765108572214496
306.0194 0.9711591096353953 -8.822343367707836
307.0193 0.9711614611952903 -8.879480721532767
308.0192 0.9711638215007283 -8.936521533233137
309.0191 0.9711661905332202 -8.99346669059628
310.019 0.9711685682744978 -9.050317069842148
311.0189 0.9711709547065092 -9.107073535808837
312.0188 0.9711733498114145 -9.16373694213456
313.0187 0.9711757535715814 -9.22030813143615
314.0186 0.971178165969581 -9.276787935484135
315.0185 0.9711805869881845 -9.33317717537448
316.0184 0.971183016610358 -9.389476661697183
317.0183 0.9711854548192593 -9.445687194701549
318.0182 0.9711879015982348 -9.501809564458421
319.0181 0.9711903569308138 -9.557844551019434
320.018 0.9711928208007073 -9.613792924573174
321.0179 0.9711952931918029 -9.669655445598487
322.0178 0.9711977740881614 -9.725432865014959
323.0177 0.9712002634740139 -9.7811259243306
324.0176 0.9712027613337585 -9.836735355786766
325.0175 0.9712052676519564 -9.892261882500444
326.0174 0.9712077824133295 -9.94770621860393
327.0173 0.9712103056027567 -10.003069069381969
328.0172 0.9712128372052712 -10.058351131406326
329.0171 0.9712153772060574 -10.113553092667999
330.017 0.9712179255904482 -10.168675632706956
331.0169 0.9712204823439214 -10.223719422739594
332.0168 0.971223047452098 -10.278685125783882
333.0167 0.9712256209007384 -10.333573396782189
334.0166 0.9712282026757403 -10.388384882722063
335.0165 0.9712307927631363 -10.443120222754677
336.0164 0.971233391149091 -10.497780048311295
337.0163 0.9712359978198979 -10.552364983217627
338.0162 0.9712386127619783 -10.606875643806145
339.0161 0.9712412359618774 -10.661312639026454
340.016 0.9712438674062633 -10.715676570553681
341.0159 0.9712465070819238 -10.76996803289498
342.0158 0.9712491549757644 -10.824187613494203
343.0157 0.9712518110748053 -10.878335892834706
344.0156 0.9712544753661815 -10.932413444540352
345.0155 0.971257147837138 -10.986420835474847
346.0154 0.971259828475029 -11.040358625839248
347.0153 0.9712625172673163 -11.094227369267893
348.0152 0.9712652142015658 -11.148027612922585
349.0151 0.9712679192654471 -11.201759897585262
350.015 0.9712706324467307 -11.255424757748989
351.0149 0.9712733537332868 -11.309022721707459
352.0148 0.9712760831130822 -11.362554311642953
353.0147 0.9712788205741799 -11.416020043712834
354.0146 0.971281566104736 -11.469420428134521
355.0145 0.9712843196929999 -11.52275596926907
356.0144 0.9712870813273098 -11.576027165703389
357.0143 0.9712898509960937 -11.62923451033098
358.0142 0.9712926286878663 -11.682378490431432
359.0141 0.9712954143912276 -11.735459587748513
360.014 0.9712982080948619 -11.788478278566997
361.0139 0.9713010097875352 -11.841435033788223
362.0138 0.9713038194580953 -11.894330319004391
363.0137 0.9713066370954677 -11.94716459457164
364.0136 0.9713094626886575 -11.99993831568194
365.0135 0.9713122962267452 -12.052651932433749
366.0134 0.9713151376988862 -12.105305889901608
367.0133 0.9713179870943108 -12.157900628204493
368.0132 0.97132084440232 -12.210436582573154
369.0131 0.9713237096122871 -12.26291418341631
370.013 0.9713265827136544 -12.31533385638576
371.0129 0.9713294636959326 -12.367696022440493
372.0128 0.9713323525487 -12.420001097909731
373.0127 0.9713352492616009 -12.472249494554957
374.0126 0.9713381538243435 -12.524441619630991
375.0125 0.9713410662267009 -12.576577875946041
376.0124 0.9713439864585074 -12.628658661920836
377.0123 0.9713469145096589 -12.68068437164679
378.0122 0.9713498503701126 -12.73265539494325
379.0121 0.9713527940298831 -12.784572117413914
380.012 0.9713557454790439 -12.836434920502226
381.0119 0.9713587047077258 -12.888244181545991
382.0118 0.9713616717061146 -12.940000273831131
383.0117 0.9713646464644519 -12.991703566644597
384.0116 0.9713676289730324 -13.0433544253264
385.0115 0.9713706192222048 -13.094953211320927
386.0114 0.9713736172023691 -13.146500282227361
387.0113 0.9713766229039761 -13.197995991849439
388.0112 0.9713796363175276 -13.24944069024431
389.0111 0.9713826574335738 -13.300834723770759
390.011 0.9713856862427137 -13.352178435136587
391.0109 0.9713887227355937 -13.40347216344542
392.0108 0.9713917669029066 -13.45471624424254
393.0107 0.9713948187353915 -13.505911009560332
394.0106 0.9713978782238317 -13.557056787962823
395.0105 0.9714009453590553 -13.608153904589596
396.0104 0.9714040201319336 -13.659202681199096
397.0103 0.9714071025333803 -13.710203436211218
398.0102 0.9714101925543505 -13.7611564847493
399.0101 0.9714132901858409 -13.812062138681437
400.01 0.9714163954188885 -13.86292070666122
401.0099 0.9714195082445697 -13.913732494167865
402.0098 0.9714226286540002 -13.964497803545711
403.0097 0.9714257566383326 -14.015216934043176
404.0096 0.9714288921887583 -14.06589018185109
405.0095 0.971432035296505 -14.116517840140492
406.0094 0.971435185952836 -14.167100199099886
407.0093 0.9714383441490511 -14.217637545971852
408.0092 0.9714415098764844 -14.268130165089286
409.0091 0.9714446831265041 -14.318578337910948
410.009 0.9714478638905119 -14.368982343056613
411.0089 0.9714510521599424 -14.4193424563416
412.0088 0.9714542479262633 -14.4696589508109
413.0087 0.9714574511809735 -14.519932096772733
414.0086 0.971460661915603 -14.57016216183166
415.0085 0.9714638801217127 -14.620349410921266
416.0084 0.9714671057908935 -14.670494106336204
417.0083 0.9714703389147659 -14.720596507764013
418.0082 0.9714735794849794 -14.77065687231623
419.0081 0.9714768274932115 -14.820675454559332
420.008 0.9714800829311686 -14.870652506544959
421.0079 0.9714833457905839 -14.920588277839931
422.0078 0.9714866160632174 -14.970483015555672
423.0077 0.9714898937408558 -15.020336964377378
424.0076 0.9714931788153119 -15.070150366592621
425.0075 0.9714964712784238 -15.119923462119623
426.0074 0.9714997711220542 -15.169656488535193
427.0073 0.9715030783380915 -15.219349681102097
