!Created with skrf (http://scikit-rf.org).
# MHz S MA R 50.0 
!freq magS11 angS11
0.05 0.9607465643090993 179.5102075023198
1.0499 0.9610506214705475 169.74242776449992
2.0498 0.9618826943788312 160.11974659131903
3.0497 0.9631768338882138 150.768235382291
4.0496 0.9648387145718966 141.79292658323595
5.0495 0.9667613275339623 133.27258732859633
6.0494 0.9688395786206571 125.25853754380339
7.0493 0.9709808597246163 117.77675930454018
8.0492 0.9731106823860843 110.83205526810572
9.0491 0.9751740348696443 104.4130217451548
10.049 0.9771338492072051 98.49690778572082
11.0489 0.9789679850149444 93.05381756513786
12.0488 0.9806657935411973 88.05003977004938
13.0487 0.9822249059306983 83.45050425044134
14.0486 0.9836485464149743 79.22048000165846
15.0485 0.9849434464249737 75.32666922719976
16.0484 0.9861183144356075 71.73785033451075
17.0483 0.9871827661361198 68.4252009637194
18.0482 0.988146610261188 65.36240450174293
19.0481 0.9890193959238607 62.525617210904365
20.048 0.9898101448635008 59.89335105679572
21.0479 0.9905272100693909 57.44631018276357
22.0478 0.9911782179159734 55.167206297942805
23.0477 0.9917700634248752 53.04056919575579
24.0476 0.9923089376838686 51.05256234441591
25.0475 0.9928003733003479 49.19080924882141
26.0474 0.9932492986139362 47.44423348664859
27.0473 0.9936600947505585 45.80291352884219
28.0472 0.9940366518831099 44.25795234566961
29.0471 0.9943824225880946 42.80136114741585
30.047 0.9947004711859629 41.42595625635503
31.0469 0.9949935185919453 40.12526794639463
32.0468 0.9952639826011547 38.89346004636796
33.0467 0.9955140137677231 37.72525913426429
34.0466 0.9957455271683923 36.615892221266684
35.0465 0.9959602304038749 35.561031916087586
36.0464 0.9961596482117813 34.556748159057186
37.0463 0.9963451440596561 33.59946571401807
38.0462 0.996517939066739 32.68592669986566
39.0461 0.9966791285754836 31.813157530205377
40.046 0.9968296966631842 30.97843970806044
41.0459 0.9969705288529587 30.179283992663585
42.0458 0.99710242325349 29.41340751738317
43.0457 0.99722610032917 28.678713492322103
44.0456 0.9973422114770594 27.97327317275507
45.0455 0.9974513465644788 27.29530981605321
46.0454 0.9975540405610209 26.64318438578521
47.0453 0.9976507793811741 26.015382792942788
48.0452 0.9977420050383642 25.410504491321554
49.0451 0.9978281201978306 24.827252267541212
50.045 0.9979094922041385 24.26442308649645
51.0449 0.9979864566490573 23.720899870615415
52.0448 0.9980593205368444 23.195644106539707
53.0447 0.9981283650964538 22.68768918604872
54.0446 0.9981938482836896 22.196134399512868
55.0445 0.9982560070107291 21.720139510114183
56.0444 0.9983150591355875 21.258919845726513
57.0443 0.9983712052399222 20.811741852879923
58.0442 0.9984246302199468 20.377919063797652
59.0441 0.9984755047121021 19.95680843322111
60.044 0.998523986372418 19.547807006741287
61.0439 0.998570221026149 19.15034888673263
62.0438 0.9986143437022298 18.763902465818667
63.0437 0.9986564795653228 18.387967901162583
64.0436 0.9986967447566916 18.022074805828904
65.0435 0.9987352471537909 17.66578013606189
66.0434 0.9987720870572944 17.318666255613397
67.0433 0.9988073578132589 16.980339160272035
68.0432 0.9988411463772375 16.650426847527633
69.0431 0.9988735338263602 16.32857781788114
70.043 0.9989045958247355 16.01445969570617
71.0429 0.9989344030468983 15.707757958806177
72.0428 0.9989630215635388 15.408174766909507
73.0427 0.9989905131932397 15.115427880322503
74.0426 0.9990169358235816 14.829249660829369
75.0425 0.9990423437045832 14.549386147703386
76.0424 0.9990667877171463 14.275596202385143
77.0423 0.999090315618881 14.007650716001665
78.0422 0.9991129722694451 13.745331874452939
79.0421 0.9991347998373052 13.488432476287525
80.042 0.9991558379896364 13.236755299032701
81.0419 0.9991761240668976 12.990112510043188
82.0418 0.9991956932434666 12.748325118290559
83.0417 0.9992145786755897 12.511222463837573
84.0416 0.999232811637757 12.278641742032107
85.0415 0.9992504216485293 12.05042755971672
86.0414 0.9992674365867248 11.826431520986254
87.0413 0.9992838827987987 11.606511840239273
88.0412 0.9992997851981614 11.39053298046213
89.0411 0.9993151673571191 11.178365314859189
90.041 0.999330051592046 10.969884810101226
91.0409 0.9993444590423562 10.76497272960758
92.0408 0.9993584097437738 10.563515355408217
93.0407 0.9993719226963702 10.365403727250445
94.0406 0.9993850159277862 10.170533397722819
95.0405 0.9993977065520221 9.978804202267135
96.0404 0.999410010824146 9.790120043038957
97.0403 0.999421944191239 9.604388685658567
98.0402 0.9994335213398674 9.421521567969155
99.0401 0.9994447562403506 9.241433619986939
100.04 0.9994556621880669 9.06404309429032
101.0399 0.9994662518420199 8.889271406152186
102.0398 0.9994765372608705 8.717042982771751
103.0397 0.9994865299366236 8.54728512101022
104.0396 0.9994962408261391 8.379927853078437
105.0395 0.9995056803806273 8.214903819665208
106.0394 0.999514858573273 8.052148150031755
107.0393 0.9995237849251238 7.891598348632213
108.0392 0.9995324685293622 7.7331941878512
109.0391 0.9995409180740791 7.576877606478436
110.039 0.9995491418636518 7.422592613567148
111.0389 0.9995571478388209 7.270285197347294
112.0388 0.9995649435955583 7.119903238887591
113.0387 0.9995725364028072 6.971396430221046
114.0386 0.9995799332191707 6.824716196668093
115.0385 0.9995871407086172 6.679815623109321
116.0384 0.9995941652552717 6.536649383976405
117.0383 0.9996010129773504 6.395173676744937
118.0382 0.9996076897402955 6.25534615872731
119.0381 0.9996142011691602 6.117125886976852
120.038 0.9996205526602974 5.98047326112649
121.0379 0.9996267493923895 5.84534996899682
122.0378 0.9996327963368671 5.711718934818686
123.0377 0.99963869826775 5.57954426992539
124.0376 0.9996444597709513 5.448791225778516
125.0375 0.999650085253074 5.319426149200039
126.0374 0.9996555789497344 5.1914164396910545
127.0373 0.9996609449334379 5.06473050872491
128.0372 0.9996661871210359 4.939337740909292
129.0371 0.9996713092807923 4.815208456918233
130.037 0.9996763150390752 4.692313878100943
131.0369 0.9996812078867042 4.570626092679753
132.0368 0.999685991184968 4.450118023454962
133.0367 0.9996906681713338 4.330763396938861
134.0366 0.9996952419648655 4.2125367138459415
135.0365 0.9996997155713709 4.095413220870449
136.0364 0.9997040918882855 3.9793688836864116
137.0363 0.9997083737093173 3.86438036110896
138.0362 0.9997125637288601 3.750424980359228
139.0361 0.9997166645461892 3.637480713378387
140.036 0.999720678669452 3.5255261541393486
141.0359 0.9997246085194681 3.4145404969076236
142.0358 0.9997284564333422 3.3045035154053934
143.0357 0.9997322246679065 3.195395542835461
144.0356 0.9997359154029989 3.0871974527240114
145.0355 0.9997395307445875 2.9798906405434376
146.0354 0.9997430727277467 2.873457006078438
147.0353 0.9997465433194954 2.7678789365006926
148.0352 0.9997499444215047 2.6631392901191564
149.0351 0.9997532778726794 2.559221380774785
150.035 0.9997565454516232 2.4561089628501334
151.0349 0.9997597488789904 2.3537862168658257
152.0348 0.9997628898197329 2.2522377356373093
153.0347 0.9997659698852457 2.1514485109666595
154.0346 0.9997689906354159 2.0514039208455515
155.0345 0.9997719535805831 1.9520897171466447
156.0344 0.9997748601834126 1.8534920137818487
157.0343 0.9997777118606841 1.7555972753069564
158.0342 0.9997805099850087 1.658392305953168
159.0341 0.9997832558864636 1.5618642390670252
160.034 0.9997859508541653 1.4660005269411427
161.0339 0.9997885961377682 1.3707889310189727
162.0338 0.9997911929489043 1.2762175124577477
163.0337 0.9997937424625594 1.1822746230343577
164.0336 0.9997962458183943 1.0889488963798093
165.0335 0.999798704122008 0.9962292395284484
166.0334 0.9998011184461507 0.9041048247689505
167.0333 0.9998034898318863 0.8125650817845143
168.0332 0.9998058192897058 0.7215996900704509
169.0331 0.999808107800598 0.6311985716177559
170.033 0.9998103563170749 0.5413518838519396
171.0329 0.999812565764156 0.45205001281673957
172.0328 0.9998147370403144 0.3632835665929098
173.0327 0.9998168710183826 0.27504336894269954
174.0326 0.9998189685464264 0.18732045317102147
175.0325 0.9998210304485806 0.10010605619484338
176.0324 0.9998230575258544 0.01339161281247296
177.0323 0.9998250505569041 -0.07283124983491453
178.0322 0.9998270102987769 -0.1585707176170711
179.0321 0.9998289374876242 -0.2438347945908971
180.032 0.99983083283939 -0.32863130800593443
181.0319 0.9998326970504725 -0.41296791314559966
182.0318 0.9998345307983587 -0.49685209801047064
183.0317 0.9998363347422373 -0.5802911878495675
184.0316 0.9998381095235869 -0.6632923495453336
185.0315 0.9998398557667444 -0.7458625958577927
186.0314 0.9998415740794497 -0.8280087895331681
187.0313 0.9998432650533726 -0.9097376472819014
188.0312 0.9998449292646192 -0.9910557436309607
189.0311 0.9998465672742192 -1.0719695146549864
190.031 0.9998481796285968 -1.1524852615907242
191.0309 0.9998497668600249 -1.2326091543389488
192.0308 0.9998513294870603 -1.3123472348579828
193.0307 0.9998528680149661 -1.391705420452636
194.0306 0.999854382936118 -1.4706895069623733
195.0305 0.9998558747303967 -1.5493051718522302
196.0304 0.999857343865565 -1.6275579772099509
197.0303 0.9998587907976335 -1.7054533726526278
198.0302 0.9998602159712121 -1.7829966981460403
199.0301 0.9998616198198509 -1.8601931867396801
200.03 0.9998630027663673 -1.9370479672204586
201.0299 0.9998643652231631 -2.0135660666878197
202.0298 0.9998657075925316 -2.089752413053027
203.0297 0.9998670302669507 -2.16561183746517
204.0296 0.9998683336293713 -2.241149076666423
205.0295 0.9998696180534921 -2.3163687752788666
206.0294 0.9998708839040249 -2.391275488025299
207.0293 0.9998721315369552 -2.465873681886143
208.0292 0.9998733612997881 -2.54016773819464
209.0291 0.9998745735317923 -2.6141619546723294
210.029 0.9998757685642308 -2.6878605474068684
211.0289 0.9998769467205875 -2.7612676527739954
212.0288 0.9998781083167844 -2.8343873293055153
213.0287 0.9998792536613935 -2.907223559505074
214.0286 0.9998803830558394 -2.979780251613383
215.0285 0.9998814967945986 -3.0520612413245622
216.0284 0.9998825951653889 -3.124070293455102
217.0283 0.9998836784493553 -3.1958111035670935
218.0282 0.9998847469212501 -3.2672872995470237
219.0281 0.9998858008496048 -3.3385024431416537
220.028 0.9998868404968984 -3.4094600314523165
221.0279 0.9998878661197216 -3.4801634983888934
222.0278 0.9998888779689328 -3.550616216084795
223.0277 0.9998898762898116 -3.6208214962741017
224.0276 0.999890861322208 -3.690782591632097
225.0275 0.9998918333006832 -3.7605026970802613
226.0274 0.9998927924546516 -3.829984951056876
227.0273 0.9998937390085137 -3.8992324367542337
228.0272 0.9998946731817884 -3.9682481833235452
229.0271 0.999895595189238 -4.037035167048444
230.027 0.9998965052409923 -4.1055963124880845
231.0269 0.9998974035426691 -4.173934493590745
232.0268 0.9998982902954868 -4.242052534778807
233.0267 0.9998991656963795 -4.3099532120059685
234.0266 0.9999000299381048 -4.377639253787521
235.0265 0.9999008832093494 -4.445113342204491
236.0264 0.9999017256948324 -4.512378113882367
237.0263 0.9999025575754042 -4.579436160945268
238.0262 0.9999033790281443 -4.6462900319461395
239.0261 0.9999041902264529 -4.712942232773768
240.026 0.9999049913401459 -4.779395227537242
241.0259 0.9999057825355393 -4.845651439428528
242.0258 0.9999065639755383 -4.91171325156379
243.0257 0.9999073358197192 -4.9775830078040215
244.0256 0.9999080982244122 -5.043263013555686
245.0255 0.9999088513427777 -5.1087555365517545
246.0254 0.9999095953248861 -5.174062807613921
247.0253 0.9999103303177901 -5.2391870213963
248.0252 0.9999110564655979 -5.304130337111299
249.0251 0.9999117739095432 -5.368894879238062
250.025 0.9999124827880549 -5.433482738214019
251.0249 0.999913183236822 -5.497895971109999
252.0248 0.9999138753888595 -5.562136602289333
253.0247 0.9999145593745709 -5.626206624051411
254.0246 0.9999152353218091 -5.690107997260163
255.0245 0.9999159033559377 -5.753842651957746
256.0244 0.9999165635998857 -5.8174124879640265
257.0243 0.9999172161742077 -5.8808193754620355
258.0242 0.9999178611971351 -5.944065155569951
259.0241 0.9999184987846332 -6.007151640899874
260.024 0.9999191290504499 -6.070080616103762
261.0239 0.9999197521061677 -6.1328538384068985
262.0238 0.9999203680612541 -6.195473038129184
263.0237 0.9999209770231067 -6.257939919194621
264.0236 0.9999215790971027 -6.320256159629238
265.0235 0.999922174386643 -6.382423412047834
266.0234 0.9999227629931962 -6.444443304129772
267.0233 0.9999233450163426 -6.506317439084144
268.0232 0.9999239205538157 -6.568047396104558
269.0231 0.9999244897015435 -6.629634730813839
270.023 0.9999250525536869 -6.6910809756989105
271.0229 0.9999256092026817 -6.7523876405360435
272.0228 0.9999261597392727 -6.813556212806836
273.0227 0.9999267042525531 -6.874588158105033
274.0226 0.9999272428299995 -6.935484920534483
275.0225 0.9999277755575077 -6.996247923098522
276.0224 0.9999283025194251 -7.056878568080861
277.0223 0.9999288237985867 -7.117378237418221
278.0222 0.999929339476345 -7.177748293065104
279.0221 0.9999298496326033 -7.237990077350615
280.022 0.9999303543458452 -7.298104913327747
281.0219 0.9999308536931669 -7.358094105115189
282.0218 0.9999313477503039 -7.41795893823197
283.0217 0.999931836591662 -7.4777006799249435
284.0216 0.9999323202903426 -7.537320579489461
285.0215 0.9999327989181735 -7.596819868583274
286.0214 0.9999332725457322 -7.656199761533904
287.0213 0.9999337412423738 -7.7154614556396135
288.0212 0.9999342050762552 -7.774606131464113
289.0211 0.999934664114361 -7.833634953125183
290.021 0.9999351184225267 -7.892549068577381
291.0209 0.9999355680654619 -7.951349609888876
292.0208 0.9999360131067754 -8.010037693512697
293.0207 0.9999364536089945 -8.068614420552365
294.0206 0.9999368896335898 -8.127080877022221
295.0205 0.9999373212409949 -8.18543813410239
296.0204 0.999937748490627 -8.24368724838865
297.0203 0.9999381714409096 -8.30182926213727
298.0202 0.99993859014929 -8.3598652035049
299.0201 0.9999390046722594 -8.417796086783726
300.02 0.9999394150653726 -8.475622912631888
301.0199 0.9999398213832663 -8.533346668299327
302.0198 0.9999402236796764 -8.590968327849223
303.0197 0.9999406220074573 -8.648488852374966
304.0196 0.9999410164185971 -8.705909190212958
305.0195 0.9999414069642373 -8.763230277151157
306.0194 0.9999417936946866 -8.820453036633618
307.0193 0.9999421766594383 -8.87757837996103
308.0192 0.9999425559071872 -8.934607206487328
309.0191 0.9999429314858426 -8.991540403812534
310.019 0.9999433034425455 -9.048378847971886
311.0189 0.9999436718236819 -9.105123403621308
312.0188 0.9999440366748988 -9.161774924219337
313.0187 0.9999443980411167 -9.21833425220556
314.0186 0.9999447559665441 -9.274802219175712
315.0185 0.9999451104946917 -9.331179646053327
316.0184 0.9999454616683837 -9.387467343258317
317.0183 0.9999458095297735 -9.443666110872181
318.0182 0.9999461541203534 -9.499776738800268
319.0181 0.9999464954809686 -9.555800006930907
320.018 0.9999468336518292 -9.61173668529159
321.0179 0.9999471686725216 -9.667587534202225
322.0178 0.9999475005820204 -9.723353304425597
323.0177 0.9999478294186992 -9.779034737314994
324.0176 0.9999481552203429 -9.834632564959106
325.0175 0.999948478024156 -9.890147510324297
326.0174 0.9999487978667764 -9.945580287394236
327.0173 0.9999491147842834 -10.000931601306979
328.0172 0.9999494288122094 -10.056202148489565
329.0171 0.9999497399855483 -10.111392616790164
330.017 0.9999500483387662 -10.166503685607779
331.0169 0.9999503539058114 -10.221536026019702
332.0168 0.9999506567201224 -10.276490300906612
333.0167 0.999950956814638 -10.331367165075381
334.0166 0.9999512542218062 -10.38616726537981
335.0165 0.999951548973592 -10.440891240839068
336.0164 0.9999518411014876 -10.495539722754142
337.0163 0.9999521306365191 -10.550113334822115
338.0162 0.9999524176092563 -10.604612693248528
339.0161 0.9999527020498192 -10.659038406857661
340.016 0.9999529839878875 -10.71339107720093
341.0159 0.9999532634527063 -10.767671298663384
342.0158 0.999953540473096 -10.821879658568307
343.0157 0.9999538150774582 -10.876016737280025
344.0156 0.9999540872937825 -10.930083108304922
345.0155 0.9999543571496562 -10.984079338390666
346.0154 0.9999546246722679 -11.038005987623789
347.0153 0.9999548898884167 -11.09186360952554
348.0152 0.9999551528245182 -11.145652751146061
349.0151 0.9999554135066108 -11.199373953157025
350.015 0.9999556719603625 -11.253027749942634
351.0149 0.999955928211077 -11.306614669689088
352.0148 0.9999561822837001 -11.360135234472516
353.0147 0.9999564342028252 -11.413589960345446
354.0146 0.9999566839927004 -11.466979357421778
355.0145 0.999956931677233 -11.520303929960347
356.0144 0.9999571772799959 -11.573564176447102
357.0143 0.9999574208242329 -11.626760589675849
358.0142 0.9999576623328649 -11.679893656827694
359.0141 0.9999579018284943 -11.732963859549157
360.014 0.9999581393334114 -11.785971674028957
361.0139 0.9999583748695976 -11.838917571073576
362.0138 0.9999586084587333 -11.891802016181504
363.0137 0.9999588401222002 -11.944625469616328
364.0136 0.9999590698810883 -11.9973883864786
365.0135 0.999959297756199 -12.05009121677648
366.0134 0.9999595237680512 -12.102734405495287
367.0133 0.9999597479368849 -12.15531839266591
368.0132 0.9999599702826657 -12.20784361343205
369.0131 0.9999601908250905 -12.260310498116423
370.013 0.9999604095835904 -12.312719472285913
371.0129 0.9999606265773353 -12.365070956815574
372.0128 0.9999608418252394 -12.41736536795172
373.0127 0.9999610553459628 -12.469603117373957
374.0126 0.9999612671579183 -12.521784612256168
375.0125 0.9999614772792736 -12.573910255326615
376.0124 0.9999616857279553 -12.625980444927047
377.0123 0.9999618925216536 -12.677995575070822
378.0122 0.9999620976778252 -12.729956035500203
379.0121 0.9999623012136971 -12.781862211742679
380.012 0.9999625031462706 -12.833714485166421
381.0119 0.9999627034923253 -12.885513233034839
382.0118 0.9999629022684207 -12.937258828560374
383.0117 0.9999630994909015 -12.988951640957321
384.0116 0.9999632951759004 -13.040592035493933
385.0115 0.9999634893393413 -13.092180373543668
386.0114 0.9999636819969423 -13.143717012635639
387.0113 0.999963873164219 -13.195202306504303
388.0112 0.9999640628564881 -13.246636605138365
389.0111 0.9999642510888692 -13.29802025482897
390.011 0.9999644378762904 -13.349353598217087
391.0109 0.9999646232334876 -13.400636974340241
392.0108 0.9999648071750104 -13.451870718678451
393.0107 0.999964989715224 -13.503055163199548
394.0106 0.9999651708683113 -13.554190636403783
395.0105 0.9999653506482767 -13.605277463367713
396.0104 0.9999655290689481 -13.656315965787472
397.0103 0.9999657061439798 -13.707306462021373
398.0102 0.9999658818868554 -13.758249267131877
399.0101 0.9999660563108902 -13.809144692926912
400.01 0.9999662294292326 -13.859993048000607
401.0099 0.9999664012548685 -13.9107946377734
402.0098 0.9999665718006224 -13.961549764531517
403.0097 0.9999667410791604 -14.012258727465932
404.0096 0.9999669091029922 -14.062921822710704
405.0095 0.9999670758844735 -14.113539343380742
406.0094 0.9999672414358086 -14.164111579609056
407.0093 0.9999674057690519 -14.214638818583397
408.0092 0.9999675688961105 -14.265121344582425
409.0091 0.9999677308287471 -14.31555943901131
410.009 0.9999678915785807 -14.365953380436808
411.0089 0.9999680511570892 -14.416303444621866
412.0088 0.9999682095756126 -14.466609904559663
413.0087 0.9999683668453531 -14.516873030507227
414.0086 0.999968522977378 -14.5670930900185
415.0085 0.9999686779826226 -14.617270347976989
416.0084 0.9999688318718901 -14.667405066627875
417.0083 0.9999689846558554 -14.717497505609755
418.0082 0.9999691363450655 -14.767547921985798
419.0081 0.9999692869499415 -14.817556570274652
420.008 0.9999694364807821 -14.867523702480652
421.0079 0.9999695849477632 -14.917449568123848
422.0078 0.9999697323609407 -14.967334414269448
423.0077 0.9999698787302518 -15.017178485556894
424.0076 0.9999700240655166 -15.066982024228572
425.0075 0.9999701683764409 -15.116745270157994
426.0074 0.999970311672616 -15.166468460877766
