!Created with skrf (http://scikit-rf.org).
# MHz S MA R 50.0 
!freq magS11 angS11
0.05 0.9999600015301346 179.5104029789582
1.0499 0.9999603201702933 169.74682911893422
2.0498 0.9999611914370723 160.12992907972085
3.0497 0.9999625444605855 150.7870799848688
4.0496 0.9999642782579765 141.82429109812364
5.0495 0.9999662788893222 133.3209143626734
6.0494 0.9999684352355459 125.32847305139138
7.0493 0.9999706502154796 117.87283562203221
8.0492 0.9999728465471013 110.95846474494476
9.0491 0.9999749678841946 104.5734823328527
10.049 0.9999769769097828 98.6946061584613
11.0489 0.999978851936979 93.2914089064758
12.0488 0.9999805831563264 88.32968363636338
13.0487 0.999982169196359 83.77391968186238
14.0486 0.999983614291045 79.58900781196796
15.0485 0.9999849261114274 75.74133375061034
16.0484 0.9999861141965101 72.19941627648483
17.0483 0.999987188871692 68.93422333905245
18.0482 0.9999881605382976 65.91927111763698
19.0481 0.9999890392322887 63.130583996013335
20.048 0.9999898343708294 60.54657095800499
21.0479 0.9999905546254821 58.147856510321795
22.0478 0.9999912078778125 55.917091408388174
23.0477 0.9999918012264424 53.83875933345457
24.0476 0.9999923410244451 51.89898936070768
25.0475 0.999992832933055 50.08537980802657
26.0474 0.9999932819826086 48.386836263837544
27.0473 0.9999936926350294 46.79342481137601
28.0472 0.9999940688444385 45.29624037108397
29.0471 0.9999944141139796 43.887289444025996
30.047 0.9999947315479181 42.559386198768976
31.0469 0.9999950238986794 41.30606069429573
32.0468 0.9999952936088713 40.121477999788326
33.0467 0.9999955428485391 39.00036701056492
34.0466 0.9999957735480188 37.937957836812274
35.0465 0.9999959874268075 36.929926738013144
36.0464 0.9999961860188621 35.97234767862721
37.0463 0.9999963706947408 35.061649682112886
38.0462 0.9999965426809602 34.194579256482214
39.0461 0.9999967030769134 33.36816725304062
40.046 0.9999968528696596 32.57969959986872
41.0459 0.9999969929468554 31.826691422838255
42.0458 0.9999971241080734 31.106864129867407
43.0457 0.9999972470747108 30.418125089312507
44.0456 0.9999973624986825 29.75854958157745
45.0455 0.9999974709700484 29.12636474494388
46.0454 0.9999975730237187 28.51993527301162
47.0453 0.9999976691453539 27.93775065267143
48.0452 0.9999977597765662 27.37841375883176
49.0451 0.9999978453195094 26.840630645745488
50.045 0.9999979261409366 26.32320139522581
51.0449 0.9999980025757915 25.825011899733454
52.0448 0.9999980749303925 25.34502647363983
53.0447 0.9999981434852602 24.882281199247345
54.0446 0.9999982084976302 24.435877925663362
55.0445 0.9999982702036936 24.00497884862083
56.0444 0.9999983288205926 23.58880160802643
57.0443 0.999998384548203 23.186614847575534
58.0442 0.9999984375707309 22.797734187358902
59.0441 0.9999984880581405 22.42151856612932
60.044 0.9999985361674354 22.057366914912745
61.0439 0.9999985820438105 21.70471512803639
62.0438 0.9999986258216869 21.363033301487505
63.0437 0.9999986676256445 21.03182321188681
64.0436 0.9999987075712634 20.710616012318606
65.0435 0.9999987457658832 20.398970123862075
66.0434 0.9999987823092894 20.09646930395915
67.0433 0.999998817294336 19.80272087477478
68.0432 0.999998850807508 19.517354096489512
69.0431 0.9999988829294338 19.240018672041295
70.043 0.9999989137353491 18.97038337123063
71.0429 0.9999989432955199 18.708134763340585
72.0428 0.9999989716756278 18.452976048522974
73.0427 0.9999989989371203 18.20462597917853
74.0426 0.9999990251375316 17.962817863428786
75.0425 0.9999990503307753 17.72729864355203
76.0424 0.9999990745674115 17.497828042947233
77.0423 0.9999990978948927 17.274177775807566
78.0422 0.9999991203577877 17.056130814237388
79.0421 0.9999991419979882 16.8434807080416
80.042 0.9999991628548975 16.63603095285963
81.0419 0.9999991829656051 16.433594402714622
82.0418 0.9999992023650454 16.235992723405833
83.0417 0.9999992210861471 16.0430558834948
84.0416 0.9999992391599672 15.854621679924842
85.0415 0.9999992566158175 15.670535295575567
86.0414 0.9999992734813787 15.490648886289506
87.0413 0.9999992897828094 15.314821195121171
88.0412 0.9999993055448433 15.142917191751883
89.0411 0.9999993207908815 14.974807735187708
90.041 0.9999993355430766 14.81036925801644
91.0409 0.9999993498224122 14.649483470642823
92.0408 0.9999993636487747 14.492037084051418
93.0407 0.9999993770410227 14.337921549764989
94.0406 0.999999390017047 14.18703281577407
95.0405 0.9999994025938326 14.039271097311076
96.0404 0.9999994147875096 13.894540661432233
97.0403 0.9999994266134072 13.752749624451502
98.0402 0.9999994380860986 13.613809761345658
99.0401 0.9999994492194448 13.477636326317256
100.04 0.999999460026638 13.344147883764634
101.0399 0.9999994705202379 13.21326614896495
102.0398 0.9999994807122073 13.084915837828316
103.0397 0.999999490613948 12.95902452512902
104.0396 0.9999995002363291 12.83552251066352
105.0395 0.9999995095897182 12.714342692825278
106.0394 0.9999995186840084 12.595420449123345
107.0393 0.999999527528644 12.478693523205814
108.0392 0.9999995361326443 12.364101917980342
109.0391 0.9999995445046274 12.251587794452865
110.039 0.9999995526528286 12.14109537593232
111.0389 0.9999995605851248 12.032570857273312
112.0388 0.9999995683090483 11.925962318851706
113.0387 0.9999995758318093 11.821219644988656
114.0386 0.9999995831603081 11.718294446558044
115.0385 0.9999995903011533 11.617139987530079
116.0384 0.9999995972606757 11.517711115220271
117.0383 0.9999996040449425 11.419964194028362
118.0382 0.99999961065977 11.323857042465825
119.0381 0.9999996171107358 11.229348873283826
120.038 0.9999996234031909 11.136400236525445
121.0379 0.9999996295422698 11.044972965337628
122.0378 0.9999996355329024 10.955030124388397
123.0377 0.9999996413798213 10.86653596074496
124.0376 0.9999996470875736 10.77945585707717
125.0375 0.9999996526605288 10.69375628705936
126.0374 0.9999996581028855 10.609404772851356
127.0373 0.9999996634186815 10.526369844546785
128.0372 0.9999996686117998 10.444621001483576
129.0371 0.9999996736859764 10.364128675318007
130.037 0.9999996786448061 10.28486419476944
131.0369 0.9999996834917494 10.206799751948441
132.0368 0.9999996882301385 10.12990837018619
133.0367 0.9999996928631827 10.054163873287926
134.0366 0.9999996973939742 9.979540856137513
135.0365 0.9999997018254919 9.906014656584635
136.0364 0.9999997061606083 9.833561328549905
137.0363 0.9999997104020925 9.762157616286986
138.0362 0.9999997145526153 9.69178092974417
139.0361 0.9999997186147527 9.622409320971144
140.036 0.9999997225909913 9.554021461519726
141.0359 0.9999997264837303 9.486596620790175
142.0358 0.9999997302952861 9.420114645277312
143.0357 0.9999997340278957 9.354555938673277
144.0356 0.9999997376837194 9.289901442785995
145.0355 0.9999997412648446 9.22613261923475
146.0354 0.999999744773288 9.163231431886198
147.0353 0.9999997482109992 9.101180329996286
148.0352 0.9999997515798634 9.039962232025157
149.0351 0.9999997548817023 8.979560510094077
150.035 0.9999997581182791 8.919958975054827
151.0349 0.9999997612912989 8.861141862143748
152.0348 0.9999997644024115 8.803093817193906
153.0347 0.999999767453214 8.745799883380197
154.0346 0.9999997704452523 8.689245488473716
155.0345 0.9999997733800231 8.6334164325826
156.0344 0.9999997762589756 8.578298876357945
157.0343 0.9999997790835146 8.52387932964435
158.0342 0.9999997818549994 8.470144640555725
159.0341 0.9999997845747485 8.417081984957866
160.034 0.9999997872440389 8.36467885634033
161.0339 0.9999997898641096 8.312923056060864
162.0338 0.9999997924361609 8.26180268394663
163.0337 0.999999794961357 8.211306129236988
164.0336 0.9999997974408269 8.161422061853575
165.0335 0.9999997998756669 8.112139423983935
166.0334 0.9999998022669394 8.063447421965675
167.0333 0.9999998046156763 8.015335518458754
168.0332 0.9999998069228785 7.96779342489397
169.0331 0.9999998091895184 7.92081109418647
170.033 0.9999998114165395 7.87437871370346
171.0329 0.9999998136048585 7.828486698475815
172.0328 0.9999998157553652 7.783125684643861
173.0327 0.9999998178689252 7.738286523127918
174.0326 0.9999998199463784 7.693960273514696
175.0325 0.9999998219885413 7.650138198151041
176.0324 0.9999998239962076 7.606811756436831
177.0323 0.9999998259701488 7.563972599309288
178.0322 0.9999998279111149 7.521612563911264
179.0321 0.9999998298198355 7.479723668436375
180.032 0.9999998316970193 7.438298107144182
181.0319 0.9999998335433571 7.397328245538949
182.0318 0.9999998353595196 7.35680661570575
183.0317 0.9999998371461601 7.316725911797933
184.0316 0.9999998389039141 7.277078985670317
185.0315 0.9999998406334002 7.2378588426526225
186.0314 0.9999998423352202 7.199058637457906
187.0313 0.9999998440099607 7.160671670221076
188.0312 0.9999998456581923 7.122691382662565
189.0311 0.9999998472804709 7.085111354372742
190.031 0.9999998488773375 7.047925299212497
191.0309 0.9999998504493196 7.011127061825913
192.0308 0.9999998519969313 6.974710614260893
193.0307 0.9999998535206729 6.938670052693945
194.0306 0.9999998550210322 6.902999594255323
195.0305 0.999999856498484 6.8676935739510165
196.0304 0.999999857953493 6.832746441678143
197.0303 0.9999998593865094 6.798152759330477
198.0302 0.9999998607979751 6.763907197990906
199.0301 0.9999998621883188 6.730004535207852
200.03 0.9999998635579597 6.696439652352713
201.0299 0.9999998649073061 6.663207532055521
202.0298 0.9999998662367564 6.630303255716166
203.0297 0.9999998675466998 6.5977220010885596
204.0296 0.9999998688375153 6.565459039935304
205.0295 0.9999998701095736 6.5335097357504335
206.0294 0.9999998713632358 6.5018695415479995
207.0293 0.999999872598854 6.470533997714216
208.0292 0.9999998738167729 6.4394987299211035
209.0291 0.9999998750173288 6.408759447099564
210.029 0.9999998762008492 6.378311939469934
211.0289 0.9999998773676555 6.3481520766281125
212.0288 0.9999998785180597 6.318275805685467
213.0287 0.9999998796523678 6.288679149460725
214.0286 0.9999998807708786 6.259358204722213
215.0285 0.9999998818738836 6.230309140478786
216.0284 0.999999882961668 6.2015281963178905
217.0283 0.9999998840345099 6.173011680789251
218.0282 0.999999885092682 6.144755969832733
219.0281 0.99999988613645 6.116757505248974
220.028 0.9999998871660736 6.089012793211446
221.0279 0.9999998881818074 6.061518402818614
222.0278 0.9999998891838999 6.034270964684994
223.0277 0.9999998901725938 6.007267169569833
224.0276 0.9999998911481272 5.98050376704229
225.0275 0.9999998921107316 5.953977564181985
226.0274 0.9999998930606349 5.927685424313794
227.0273 0.9999998939980589 5.9016242657759115
228.0272 0.9999998949232218 5.875791060720058
229.0271 0.9999998958363356 5.850182833943001
230.027 0.9999998967376088 5.824796661748301
231.0269 0.9999998976272448 5.7996296708374695
232.0268 0.9999998985054432 5.774679037229624
233.0267 0.9999998993723991 5.749941985208763
234.0266 0.9999999002283031 5.725415786297917
235.0265 0.9999999010733421 5.701097758259284
236.0264 0.9999999019076994 5.676985264119667
237.0263 0.9999999027315539 5.65307571122042
238.0262 0.9999999035450814 5.629366550291202
239.0261 0.9999999043484529 5.605855274546869
240.026 0.9999999051418372 5.582539418806766
241.0259 0.9999999059253987 5.559416558635883
242.0258 0.9999999066992991 5.536484309507117
243.0257 0.9999999074636963 5.513740325984162
244.0256 0.999999908218745 5.491182300924319
245.0255 0.999999908964597 5.468807964700776
246.0254 0.999999909701401 5.446615084443709
247.0253 0.9999999104293026 5.424601463299736
248.0252 0.9999999111484447 5.402764939709195
249.0251 0.9999999118589668 5.3811033867007305
250.025 0.9999999125610062 5.359614711202714
251.0249 0.9999999132546976 5.3382968533710535
252.0248 0.9999999139401723 5.317147785932921
253.0247 0.9999999146175597 5.296165513545945
254.0246 0.9999999152869865 5.275348072172472
255.0245 0.9999999159485765 5.254693528468497
256.0244 0.9999999166024518 5.234199979186789
257.0243 0.9999999172487317 5.213865550593938
258.0242 0.9999999178875334 5.193688397900858
259.0241 0.9999999185189715 5.173666704706415
260.024 0.9999999191431588 5.153798682453858
261.0239 0.9999999197602063 5.134082569899649
262.0238 0.9999999203702213 5.114516632594429
263.0237 0.9999999209733114 5.095099162375737
264.0236 0.9999999215695801 5.0758284768722355
265.0235 0.99999992215913 5.056702919019077
266.0234 0.9999999227420621 5.037720856584176
267.0233 0.9999999233184744 5.018880681705051
268.0232 0.9999999238884638 5.000180810436013
269.0231 0.9999999244521258 4.981619682305379
270.023 0.9999999250095529 4.963195759882516
271.0229 0.9999999255608373 4.944907528354383
272.0228 0.9999999261060686 4.926753495111408
273.0227 0.9999999266453351 4.90873218934241
274.0226 0.9999999271787231 4.890842161638351
275.0225 0.9999999277063184 4.873081983604699
276.0224 0.9999999282282038 4.855450247482172
277.0223 0.999999928744462 4.837945565775679
278.0222 0.999999929255173 4.820566570891217
279.0221 0.9999999297604162 4.803311914780552
280.022 0.9999999302602695 4.786180268593469
281.0219 0.9999999307548086 4.769170322337441
282.0218 0.9999999312441092 4.752280784544479
283.0217 0.999999931728245 4.735510381945035
284.0216 0.9999999322072878 4.718857859148758
285.0215 0.9999999326813093 4.702321978331949
286.0214 0.999999933150379 4.685901518931533
287.0213 0.9999999336145659 4.669595277345413
288.0212 0.9999999340739373 4.653402066639051
289.0211 0.9999999345285598 4.637320716258091
290.021 0.999999934978498 4.621350071746921
291.0209 0.9999999354238167 4.6054889944730135
292.0208 0.9999999358645788 4.589736361356902
293.0207 0.9999999363008458 4.574091064607673
294.0206 0.9999999367326791 4.558552011463831
295.0205 0.9999999371601379 4.543118123939407
296.0204 0.9999999375832815 4.5277883385752045
297.0203 0.9999999380021677 4.512561606195049
298.0202 0.9999999384168533 4.4974368916669185
299.0201 0.9999999388273946 4.482413173668864
300.02 0.9999999392338462 4.467489444459577
301.0199 0.999999939636262 4.452664709653532
302.0198 0.999999940034696 4.4379379880005505
303.0197 0.9999999404292 4.423308311169761
304.0196 0.9999999408198256 4.408774723537755
305.0195 0.999999941206623 4.394336281980935
306.0194 0.9999999415896429 4.379992055671894
307.0193 0.999999941968934 4.365741125879779
308.0192 0.9999999423445441 4.351582585774517
309.0191 0.999999942716521 4.337515540234833
310.019 0.9999999430849114 4.323539105659968
311.0189 0.9999999434497614 4.309652409785031
312.0188 0.9999999438111157 4.295854591499865
313.0187 0.9999999441690189 4.2821448006713965
314.0186 0.9999999445235154 4.268522197969347
315.0185 0.9999999448746476 4.254985954695279
316.0184 0.9999999452224582 4.241535252614842
317.0183 0.9999999455669889 4.2281692837932265
318.0182 0.9999999459082809 4.214887250433671
319.0181 0.9999999462463743 4.201688364719017
320.018 0.9999999465813095 4.188571848656226
321.0179 0.999999946913125 4.175536933923788
322.0178 0.99999994724186 4.162582861721966
323.0177 0.9999999475675521 4.14970888262581
324.0176 0.999999947890239 4.136914256440885
325.0175 0.9999999482099574 4.124198252061664
326.0174 0.9999999485267437 4.1115601473325025
327.0173 0.9999999488406334 4.098999228911166
328.0172 0.999999949151662 4.086514792134845
329.0171 0.999999949459864 4.074106140888604
330.017 0.9999999497652734 4.061772587476222
331.0169 0.999999950067924 4.049513452493348
332.0168 0.9999999503678489 4.037328064702966
333.0167 0.9999999506650805 4.0252157609130785
334.0166 0.9999999509596514 4.013175885856594
335.0165 0.9999999512515929 4.001207792073348
336.0164 0.9999999515409361 3.989310839794235
337.0163 0.999999951827712 3.977484396827382
338.0162 0.9999999521119506 3.9657278384463543
339.0161 0.999999952393682 3.95404054728033
340.016 0.9999999526729354 3.942421913206188
341.0159 0.9999999529497399 3.930871333242522
342.0158 0.9999999532241242 3.9193882114454763
343.0157 0.9999999534961158 3.907971958806425
344.0156 0.9999999537657431 3.8966219931514057
345.0155 0.9999999540330331 3.885337739042324
346.0154 0.9999999542980127 3.874118627679844
347.0153 0.9999999545607088 3.8629640968079584
348.0152 0.9999999548211469 3.851873590620216
349.0151 0.9999999550793532 3.8408465596675287
350.015 0.9999999553353535 3.8298824607675774
351.0149 0.999999955589172 3.818980756915759
352.0148 0.9999999558408338 3.8081409171976266
353.0147 0.9999999560903634 3.7973624167028435
354.0146 0.9999999563377846 3.7866447364405764
355.0145 0.9999999565831215 3.7759873632563097
356.0144 0.999999956826397 3.765389789750068
357.0143 0.9999999570676342 3.754851514196009
358.0142 0.9999999573068556 3.744372040463354
359.0141 0.9999999575440841 3.7339508779386383
360.014 0.9999999577793416 3.7235875414492545
361.0139 0.9999999580126494 3.713281551188276
362.0138 0.9999999582440297 3.703032432640495
363.0137 0.9999999584735033 3.692839716509707
364.0136 0.9999999587010908 3.682702938647172
365.0135 0.9999999589268133 3.672621639981266
366.0134 0.9999999591506908 3.66259536644827
367.0133 0.9999999593727436 3.6526236689242886
368.0132 0.9999999595929913 3.64270610315828
369.0131 0.9999999598114533 3.632842229706174
370.013 0.9999999600281493 3.6230316138660448
371.0129 0.9999999602430975 3.613273825614349
372.0128 0.9999999604563173 3.6035684395431624
373.0127 0.9999999606678273 3.593915034798458
374.0126 0.9999999608776451 3.5843131950193325
375.0125 0.999999961085789 3.57476250827824
376.0124 0.9999999612922769 3.5652625670221547
377.0123 0.9999999614971257 3.555812968014671
378.0122 0.9999999617003535 3.546413312279021
379.0121 0.9999999619019773 3.5370632050420054
380.012 0.9999999621020131 3.527762255678788
381.0119 0.9999999623004784 3.51851007765856
382.0118 0.9999999624973892 3.5093062884910737
383.0117 0.9999999626927617 3.500150509673995
384.0116 0.9999999628866119 3.491042366641074
385.0115 0.9999999630789557 3.4819814887111384
386.0114 0.9999999632698084 3.472967509037867
387.0113 0.9999999634591857 3.464000064560335
388.0112 0.9999999636471028 3.4550787959543334
389.0111 0.999999963833574 3.4462033475844343
390.011 0.9999999640186147 3.437373367456786
391.0109 0.9999999642022395 3.428588507172639
392.0108 0.9999999643844625 3.419848421882576
393.0107 0.9999999645652983 3.411152770241442
394.0106 0.9999999647447603 3.402501214363962
395.0105 0.9999999649228631 3.3938934197810195
396.0104 0.9999999650996202 3.3853290553966104
397.0103 0.9999999652750446 3.3768077934454457
398.0102 0.9999999654491502 3.3683293094511706
399.0101 0.9999999656219503 3.3598932821852396
400.01 0.9999999657934575 3.351499393626391
401.0099 0.9999999659636847 3.343147328920728
402.0098 0.9999999661326447 3.3348367763423923
403.0097 0.9999999663003502 3.326567427254833
404.0096 0.9999999664668134 3.318338976072635
405.0095 0.9999999666320466 3.310151120223921
406.0094 0.9999999667960618 3.3020035601133064
407.0093 0.9999999669588714 3.2938959990853975
408.0092 0.9999999671204863 3.2858281433888283
409.0091 0.9999999672809187 3.277799702140817
410.009 0.9999999674401803 3.269810387292247
411.0089 0.9999999675982819 3.2618599135932578
412.0088 0.9999999677552353 3.2539479985593305
413.0087 0.9999999679110514 3.2460743624378607
414.0086 0.9999999680657408 3.238238728175237
415.0085 0.9999999682193148 3.230440821384361
416.0084 0.9999999683717841 3.2226803703126663
417.0083 0.999999968523159 3.2149571058105706
418.0082 0.9999999686734499 3.207270761300409
419.0081 0.9999999688226672 3.1996210727457806
420.008 0.9999999689708214 3.1920077786213494
421.0079 0.9999999691179222 3.1844306198830767
422.0078 0.9999999692639799 3.176889339938863
423.0077 0.9999999694090037 3.1693836846196217
424.0076 0.999999969553004 3.161913402150746
425.0075 0.9999999696959901 3.1544782431239873
426.0074 0.9999999698379719 3.1470779604697277
427.0073 0.9999999699789581 3.1397123094296395
428.0072 0.9999999701189585 3.132381047529725
429.0071 0.9999999702579819 3.1250839345537416
430.007 0.9999999703960379 3.1178207325169827
431.0069 0.999999970533135 3.1105912056404423
432.0068 0.9999999706692821 3.103395120325314
433.0067 0.9999999708044879 3.096232245127866
434.0066 0.9999999709387615 3.0891023507346427
