!Created with skrf (http://scikit-rf.org).
# MHz S MA R 50.0 
!freq magS11 angS11
0.05 0.999960001523692 179.51040293952937
1.0499 0.9999603173746726 169.7464669603279
2.0498 0.999961181242179 160.12729281634336
3.0497 0.9999625234351542 150.7786993152848
4.0496 0.9999642445288919 141.80557380587618
5.0495 0.9999662321434122 133.2866520672841
6.0494 0.9999683764322247 125.27331463341923
7.0493 0.9999705811605657 117.79166087706525
8.0492 0.9999727694650762 110.84663275408944
9.0491 0.9999748850733995 104.42696204236181
10.049 0.9999768905100112 98.51001451665971
11.0489 0.9999787638015452 93.06598653962581
12.0488 0.9999804948036445 88.06123463102506
13.0487 0.9999820818134183 83.46073540068345
14.0486 0.9999835287657527 79.22978788566813
15.0485 0.9999848430774901 75.33511187766861
16.0484 0.9999860340806426 71.74549455813766
17.0483 0.9999871119375419 68.43211638915362
18.0482 0.9999880869245512 65.3686597560852
19.0481 0.9999889689842564 62.53127761343393
20.048 0.9999897674657976 59.8984773561789
21.0479 0.9999904909925844 57.45095798799373
22.0478 0.999991147413307 55.17142595381747
23.0477 0.99999174380527 53.044405930331784
24.0476 0.9999922865088425 51.05605657193042
25.0475 0.9999927811788768 49.19399695135594
26.0474 0.9999932328438933 47.44714662541729
27.0473 0.9999936459672292 45.80558045476157
28.0472 0.9999940245066473 44.260398191408534
29.0471 0.9999943719704132 42.80360819134099
30.047 0.9999946914688432 41.42802425405253
31.0469 0.9999949857609408 40.127174428727514
32.0468 0.9999952572961279 38.895220584988195
33.0467 0.999995508251293 37.72688757659508
34.0466 0.9999957405635025 36.61740089751339
35.0465 0.9999959559587717 35.56243182103079
36.0464 0.999996155977303 34.55804911136617
37.0463 0.9999963419955867 33.60067649568569
38.0462 0.9999965152457407 32.687055178166005
39.0461 0.9999966768324207 31.814210764347422
40.046 0.9999968277476118 30.979424042478808
41.0459 0.9999969688835693 30.180205138662945
42.0458 0.999997101044147 29.414270624644608
43.0457 0.9999972249547255 28.67952321158903
44.0456 0.9999973412709183 27.974033710846665
45.0455 0.9999974505862173 27.296024984202376
46.0454 0.9999975534387154 26.64385764216581
47.0453 0.9999976503170243 26.016017280135372
48.0452 0.9999977416654917 25.41110306936637
49.0451 0.9999978278888074 24.827817543140075
50.045 0.9999979093560751 24.26495743885012
51.0449 0.9999979864044178 23.721405474317844
52.0448 0.9999980593421763 23.196122951894512
53.0447 0.9999981284517468 22.688143097124975
54.0446 0.9999981939921072 22.196565050215582
55.0445 0.9999982562010659 21.72054843850871
56.0444 0.9999983152972683 21.259308466825473
57.0443 0.9999983714819887 20.812111470073994
58.0442 0.9999984249407333 20.378270879088802
59.0441 0.9999984758446772 19.95714355639659
60.044 0.9999985243519517 19.548126463609584
61.0439 0.9999985706088035 19.150653626527294
62.0438 0.9999986147506342 18.76419336786321
63.0437 0.9999986569029392 18.388245780878023
64.0436 0.9999986971821537 18.022340420156024
65.0435 0.9999987356964161 17.6660341883613
66.0434 0.9999987725462599 17.31890940009945
67.0433 0.9999988078252378 16.98057200602977
68.0432 0.9999988416204905 16.650649962156418
69.0431 0.99999887401326 16.328791730803626
70.043 0.9999989050793581 16.014664901176864
71.0429 0.9999989348895901 15.707954918649891
72.0428 0.9999989635101462 15.408363913016851
73.0427 0.9999989910029494 15.115609616926468
74.0426 0.9999990174259824 14.829424366584371
75.0425 0.9999990428335807 14.549554177585984
76.0424 0.9999990672767006 14.275757889433496
77.0423 0.9999990908031688 14.00780637290905
78.0422 0.9999991134579059 13.745481795029008
79.0421 0.9999991352831364 13.488576936799577
80.042 0.9999991563185768 13.236894559438019
81.0419 0.9999991766016126 12.990246815122372
82.0418 0.9999991961674579 12.748454698690685
83.0417 0.9999992150493054 12.511347537033348
84.0416 0.9999992332784625 12.278762513212115
85.0415 0.9999992508844769 12.050544222601392
86.0414 0.9999992678952536 11.826544258583462
87.0413 0.9999992843371637 11.60662082554281
88.0412 0.999999300235141 11.390638377098039
89.0411 0.9999993156127778 11.178467277684215
90.041 0.9999993304924076 10.969983485757423
91.0409 0.9999993448951856 10.765068257036676
92.0408 0.9999993588411613 10.563607866329013
93.0407 0.9999993723493475 10.365493346602241
94.0406 0.9999993854377833 10.170620244077561
95.0405 0.9999993981235931 9.97888838821284
96.0404 0.9999994104230405 9.790201675536537
97.0403 0.9999994223515812 9.604467866374272
98.0402 0.9999994339239089 9.421598393584416
99.0401 0.9999994451540006 9.241508182487355
100.04 0.9999994560551574 9.064115481235424
101.0399 0.9999994666400435 8.889341700927345
102.0398 0.9999994769207221 8.71711126482361
103.0397 0.9999994869086896 8.547351466066837
104.0396 0.999999496614906 8.379992333355316
105.0395 0.999999506049826 8.214966504058122
106.0394 0.9999995152234257 8.05220910429744
107.0393 0.9999995241452282 7.891657635557737
108.0392 0.9999995328243289 7.733251867412773
109.0391 0.9999995412694177 7.576933735990481
110.039 0.9999995494888005 7.422647247822245
111.0389 0.9999995574904199 7.270338388747649
112.0388 0.9999995652818723 7.11995503756863
113.0387 0.9999995728704281 6.971446884167606
114.0386 0.9999995802630459 6.82476535182379
115.0385 0.999999587466391 6.679863523479487
116.0384 0.9999995944868474 6.536696071725043
117.0383 0.999999601330534 6.395219192286083
118.0382 0.9999996080033159 6.255390540811188
119.0381 0.999999614510819 6.117169172771094
120.038 0.9999996208584389 5.98051548629284
121.0379 0.9999996270513548 5.845391167763499
122.0378 0.9999996330945374 5.711759140048782
123.0377 0.9999996389927608 5.579583513181457
124.0376 0.9999996447506105 5.448829537383665
125.0375 0.9999996503724929 5.319463558295703
126.0374 0.9999996558626428 5.191452974291665
127.0373 0.9999996612251327 5.064766195769635
128.0372 0.9999996664638788 4.9393726063110295
129.0371 0.999999671582649 4.815242525610061
130.037 0.9999996765850688 4.692347174080088
131.0369 0.9999996814746287 4.5706586390493325
132.0368 0.999999686254689 4.45014984246355
133.0367 0.9999996909284871 4.330794510018028
134.0366 0.9999996954991411 4.212567141645905
135.0365 0.9999996999696562 4.0954429832939185
136.0364 0.9999997043429293 3.979397999920732
137.0363 0.9999997086217532 3.864408849656682
138.0362 0.9999997128088222 3.750452859067143
139.0361 0.9999997169067342 3.637507999465155
140.036 0.9999997209179969 3.5255528642217726
141.0359 0.9999997248450307 3.4145666470256617
142.0358 0.9999997286901716 3.304529121045964
143.0357 0.9999997324556763 3.1954206189551133
144.0356 0.9999997361437234 3.0872220137705217
145.0355 0.9999997397564185 2.979914700476388
146.0354 0.9999997432957962 2.8734805783888335
147.0353 0.9999997467638226 2.7679020342296727
148.0352 0.9999997501623984 2.663161925875831
149.0351 0.9999997534933623 2.5592435667532594
150.035 0.9999997567584923 2.4561307108457586
151.0349 0.9999997599595083 2.353807538290708
152.0348 0.9999997630980745 2.252258641535129
153.0347 0.9999997661758017 2.151469012026817
154.0346 0.9999997691942492 2.0514240274166937
155.0345 0.9999997721549266 1.9521094392495901
156.0344 0.9999997750592963 1.853511361121947
157.0343 0.9999997779087744 1.7556162572859029
158.0342 0.9999997807047325 1.6584109316803193
159.0341 0.9999997834485004 1.561882517370211
160.034 0.9999997861413668 1.4660184663770253
161.0339 0.9999997887845807 1.3708065398829619
162.0338 0.999999791379353 1.276234798793499
163.0337 0.9999997939268583 1.1822915946428632
164.0336 0.9999997964282357 1.0889655608281188
165.0335 0.9999997988845905 0.9962456041580192
166.0334 0.9999998012969944 0.9041208967036571
167.0333 0.9999998036664883 0.8125808679383268
168.0332 0.9999998059940824 0.7216151971548009
169.0331 0.9999998082807566 0.631213806148601
170.033 0.9999998105274636 0.541366852156545
171.0329 0.9999998127351276 0.45206472104018597
172.0328 0.9999998149046465 0.3632980207043416
173.0327 0.9999998170368929 0.27505757474132314
174.0326 0.9999998191327145 0.187334416291872
175.0325 0.9999998211929346 0.10011978211431752
176.0324 0.9999998232183542 0.013405106853647892
177.0323 0.999999825209751 -0.0728179824971557
178.0322 0.9999998271678822 -0.15855767195113962
179.0321 0.9999998290934832 -0.2438219657037627
180.032 0.9999998309872699 -0.3286186911385785
181.0319 0.9999998328499379 -0.41295550366864453
182.0318 0.9999998346821645 -0.49683989141996876
183.0317 0.9999998364846084 -0.5802791797629534
184.0316 0.999999838257911 -0.6632805356975244
185.0315 0.9999998400026958 -0.7458509720974356
186.0314 0.9999998417195705 -0.8279973518190248
187.0313 0.9999998434091265 -0.909726391679367
188.0312 0.9999998450719393 -0.9910446663087116
189.0311 0.9999998467085698 -1.0719586118817457
190.031 0.9999998483195639 -1.1524745297321515
191.0309 0.9999998499054538 -1.2325985898546354
192.0308 0.9999998514667575 -1.3123368342985569
193.0307 0.9999998530039802 -1.3916951804569746
194.0306 0.9999998545176136 -1.4706794242549077
195.0305 0.9999998560081376 -1.5492952432403528
196.0304 0.9999998574760196 -1.6275481995815069
197.0303 0.9999998589217154 -1.7054437429734994
198.0302 0.9999998603456688 -1.7829872134578142
199.0301 0.9999998617483137 -1.8601838441573926
200.03 0.9999998631300727 -1.9370387639304234
201.0299 0.9999998644913574 -2.013556999945527
202.0298 0.9999998658325702 -2.0897434801811166
203.0297 0.9999998671541033 -2.165603035851469
204.0296 0.999999868456339 -2.241140403762054
205.0295 0.9999998697396515 -2.3163602285964218
206.0294 0.9999998710044046 -2.3912670651370678
207.0293 0.9999998722509544 -2.4658653804224064
208.0292 0.999999873479648 -2.540159555842013
209.0291 0.9999998746908245 -2.6141538891721723
210.029 0.999999875884815 -2.687852596553731
211.0289 0.9999998770619427 -2.761259814414134
212.0288 0.9999998782225233 -2.8343796013354354
213.0287 0.9999998793668651 -2.90721593987014
214.0286 0.9999998804952696 -2.979772738306461
215.0285 0.9999998816080307 -3.05205383238471
216.0284 0.9999998827054359 -3.124062986966305
217.0283 0.9999998837877667 -3.1958038976570236
218.0282 0.999999884855297 -3.267280192385868
219.0281 0.9999998859082956 -3.338495432940954
220.028 0.9999998869470249 -3.40945311646385
221.0279 0.9999998879717404 -3.480156676903602
222.0278 0.9999998889826939 -3.550609486431731
223.0277 0.9999998899801299 -3.620814856819416
224.0276 0.999999890964288 -3.6907760407780588
225.0275 0.9999998919354032 -3.7604962332643
226.0274 0.9999998928937042 -3.829978572750662
227.0273 0.9999998938394152 -3.899226142462785
228.0272 0.9999998947727559 -3.9682419715843524
229.0271 0.9999998956939408 -4.037029036430631
230.027 0.9999998966031795 -4.1055902615916
231.0269 0.9999998975006782 -4.173928521045551
232.0268 0.9999998983866373 -4.2420466392441325
233.0267 0.999999899261254 -4.30994739216955
234.0266 0.9999999001247207 -4.377633508364885
235.0265 0.9999999009772258 -4.445107669938238
236.0264 0.9999999018189545 -4.512372513541515
237.0263 0.9999999026500866 -4.579430631324573
238.0262 0.9999999034708 -4.646284571865453
239.0261 0.9999999042812674 -4.712936841077418
240.026 0.9999999050816587 -4.779389903093428
241.0259 0.9999999058721399 -4.845646181128723
242.0258 0.9999999066528741 -4.911708058322182
243.0257 0.9999999074240199 -4.977577878556954
244.0256 0.9999999081857347 -5.043257947261109
245.0255 0.9999999089381709 -5.108750532188715
246.0254 0.9999999096814784 -5.174057864182038
247.0253 0.9999999104158044 -5.239182137915286
248.0252 0.999999911141293 -5.3041255126204625
249.0251 0.9999999118580848 -5.368890112795851
250.025 0.9999999125663186 -5.433478028897561
251.0249 0.9999999132661298 -5.497891318014659
252.0248 0.9999999139576512 -5.562132004528279
253.0247 0.9999999146410136 -5.626202080755206
254.0246 0.999999915316344 -5.690103507576345
255.0245 0.9999999159837681 -5.753838215050447
256.0244 0.9999999166434088 -5.817408103013573
257.0243 0.9999999172953865 -5.880815041664577
258.0242 0.999999917939819 -5.944060872137102
259.0241 0.9999999185768229 -6.007147407058352
260.024 0.999999919206511 -6.070076431095044
261.0239 0.9999999198289954 -6.132849701486885
262.0238 0.9999999204443852 -6.195468948567874
263.0237 0.9999999210527879 -6.257935876275789
264.0236 0.9999999216543087 -6.3202521626501165
265.0235 0.9999999222490511 -6.3824194603188324
266.0234 0.999999922837116 -6.444439396974159
267.0233 0.9999999234186036 -6.506313575837777
268.0232 0.9999999239936107 -6.568043576115596
269.0231 0.9999999245622335 -6.629630953442474
270.023 0.9999999251245668 -6.69107724031709
271.0229 0.999999925680702 -6.752383946527234
272.0228 0.9999999262307299 -6.8135525595657525
273.0227 0.99999992677474 -6.8745845450374
274.0226 0.9999999273128195 -6.935481347056804
275.0225 0.9999999278450541 -6.996244388637837
276.0224 0.9999999283715281 -7.0568750720745
277.0223 0.9999999288923246 -7.117374779313631
278.0222 0.9999999294075241 -7.17774487231959
279.0221 0.9999999299172077 -7.237986693431141
280.022 0.9999999304214526 -7.298101565710741
281.0219 0.9999999309203362 -7.3580907932863315
282.0218 0.9999999314139345 -7.417955661685998
283.0217 0.9999999319023215 -7.477697438165476
284.0216 0.9999999323855705 -7.537317372028786
285.0215 0.9999999328637531 -7.596816694942194
286.0214 0.9999999333369396 -7.656196621241535
287.0213 0.9999999338051999 -7.715458348233232
288.0212 0.9999999342686013 -7.774603056488979
289.0211 0.9999999347272117 -7.833631910134374
290.021 0.999999935181096 -7.89254605713163
291.0209 0.9999999356303194 -7.951346629556421
292.0208 0.9999999360749452 -8.010034743869126
293.0207 0.999999936515036 -8.068611501180463
294.0206 0.9999999369506531 -8.127077987511823
295.0205 0.9999999373818568 -8.185435274050255
296.0204 0.9999999378087069 -8.243684417398288
297.0203 0.9999999382312613 -8.301826459818844
298.0202 0.9999999386495778 -8.359862429475067
299.0201 0.9999999390637124 -8.417793340665524
300.02 0.9999999394737211 -8.475620194054594
301.0199 0.9999999398796579 -8.533343976898353
302.0198 0.999999940281577 -8.590965663265965
303.0197 0.9999999406795311 -8.648486214256721
304.0196 0.9999999410735719 -8.705906578212781
305.0195 0.9999999414637507 -8.763227690927764
306.0194 0.9999999418501179 -8.820450475851272
307.0193 0.9999999422327228 -8.87757584428943
308.0192 0.999999942611614 -8.934604695601502
309.0191 0.9999999429868393 -8.991537917392748
310.019 0.9999999433584459 -9.04837638570354
311.0189 0.9999999437264802 -9.105120965194812
312.0188 0.9999999440909878 -9.161772509330053
313.0187 0.9999999444520135 -9.218331860553693
314.0186 0.9999999448096016 -9.274799850466204
315.0185 0.9999999451637953 -9.331177299995792
316.0184 0.999999945514638 -9.387465019566925
317.0183 0.9999999458621711 -9.443663809265601
318.0182 0.9999999462064362 -9.499774459001568
319.0181 0.9999999465474745 -9.555797748667466
320.018 0.9999999468853259 -9.611734448295028
321.0179 0.9999999472200299 -9.667585318208324
322.0178 0.9999999475516257 -9.72335110917423
323.0177 0.9999999478801513 -9.77903256255002
324.0176 0.9999999482056449 -9.834630410428336
325.0175 0.9999999485281431 -9.890145375779397
326.0174 0.999999948847683 -9.945578172590652
327.0173 0.9999999491643002 -10.0009295060039
328.0172 0.9999999494780308 -10.056200072449819
329.0171 0.9999999497889093 -10.111390559780162
330.017 0.9999999500969702 -10.166501647397475
331.0169 0.9999999504022474 -10.221534006382493
332.0168 0.9999999507047743 -10.276488299619293
333.0167 0.9999999510045843 -10.331365181918082
334.0166 0.999999951301709 -10.38616530013594
335.0165 0.9999999515961809 -10.440889293295259
336.0164 0.9999999518880314 -10.495537792700178
337.0163 0.9999999521772913 -10.550111422050895
338.0162 0.9999999524639914 -10.604610797555992
339.0161 0.9999999527481616 -10.659036528042748
340.016 0.9999999530298314 -10.713389215065526
341.0159 0.9999999533090304 -10.76766945301226
342.0158 0.9999999535857871 -10.821877829209084
343.0157 0.9999999538601301 -10.876014924023115
344.0156 0.9999999541320874 -10.930081310963475
345.0155 0.9999999544016863 -10.984077556780534
346.0154 0.999999954668954 -11.038004221563483
347.0153 0.9999999549339174 -11.091861858836152
348.0152 0.9999999551966029 -11.145651015651252
349.0151 0.9999999554570363 -11.199372232682986
350.015 0.9999999557152437 -11.253026044318013
351.0149 0.9999999559712499 -11.306612978744973
352.0148 0.9999999562250801 -11.360133558042381
353.0147 0.9999999564767588 -11.413588298265108
354.0146 0.9999999567263101 -11.46697770952937
355.0145 0.9999999569737582 -11.520302296096277
356.0144 0.9999999572191264 -11.573562556454014
357.0143 0.999999957462438 -11.626758983398558
358.0142 0.9999999577037155 -11.679892064113202
359.0141 0.999999957942982 -11.732962280246577
360.014 0.9999999581802602 -11.785970107989492
361.0139 0.9999999584155708 -11.838916018150474
362.0138 0.9999999586489368 -11.891800476230038
363.0137 0.9999999588803783 -11.94462394249376
364.0136 0.9999999591099173 -11.997386872044146
365.0135 0.9999999593375744 -12.05008971489127
366.0134 0.9999999595633696 -12.10273291602235
367.0133 0.9999999597873236 -12.155316915470122
368.0132 0.9999999600094565 -12.207842148380124
369.0131 0.9999999602297877 -12.26030904507689
370.013 0.9999999604483365 -12.312718031129032
371.0129 0.9999999606651219 -12.365069527413388
372.0128 0.9999999608801636 -12.417363950177966
373.0127 0.9999999610934793 -12.469601711104053
374.0126 0.9999999613050881 -12.5217832173672
375.0125 0.9999999615150078 -12.573908871697315
376.0124 0.9999999617232563 -12.625979072437726
377.0123 0.9999999619298516 -12.677994213603398
378.0122 0.9999999621348109 -12.729954684938129
379.0121 0.999999962338151 -12.781860871970968
380.012 0.9999999625398899 -12.833713156071562
381.0119 0.9999999627400434 -12.885511914504836
382.0118 0.9999999629386283 -12.937257520484676
383.0117 0.9999999631356612 -12.988950343226811
384.0116 0.9999999633311579 -13.040590748000922
385.0115 0.9999999635251348 -13.092179096181853
386.0114 0.9999999637176071 -13.143715745300096
387.0113 0.9999999639085904 -13.195201049091448
388.0112 0.9999999640981 -13.246635357545967
389.0111 0.9999999642861512 -13.29801901695609
390.011 0.999999964472759 -13.349352369964079
391.0109 0.9999999646579377 -13.400635755608722
392.0108 0.999999964841702 -13.451869509371296
393.0107 0.9999999650240664 -13.503053963220877
394.0106 0.9999999652050451 -13.554189445658915
395.0105 0.9999999653846516 -13.605276281763164
396.0104 0.9999999655629004 -13.656314793230932
397.0103 0.9999999657398049 -13.707305298421696
398.0102 0.9999999659153782 -13.758248112399057
399.0101 0.9999999660896339 -13.809143546972077
400.01 0.9999999662625854 -13.859991910735976
401.0099 0.9999999664342454 -13.91079350911229
402.0098 0.9999999666046264 -13.96154864438832
403.0097 0.9999999667737417 -14.012257615756106
404.0096 0.9999999669416032 -14.062920719350744
405.0095 0.9999999671082237 -14.113538248288178
406.0094 0.9999999672736153 -14.164110492702411
407.0093 0.9999999674377896 -14.214637739782214
408.0092 0.9999999676007592 -14.265120273807225
409.0091 0.9999999677625353 -14.315558376183573
410.009 0.9999999679231301 -14.36595232547899
411.0089 0.9999999680825542 -14.416302397457343
412.0088 0.9999999682408197 -14.466608865112747
413.0087 0.9999999683979375 -14.516871998703145
414.0086 0.9999999685539186 -14.567092065783374
415.0085 0.9999999687087737 -14.617269331237843
416.0084 0.9999999688625142 -14.66740405731259
417.0083 0.9999999690151505 -14.71749650364708
418.0082 0.9999999691666928 -14.767546927305348
419.0081 0.9999999693171521 -14.817555582806849
420.008 0.9999999694665379 -14.867522722156775
421.0079 0.9999999696148613 -14.91744859487597
422.0078 0.9999999697621319 -14.967333448030454
423.0077 0.9999999699083594 -15.017177526260465
424.0076 0.9999999700535539 -15.066981071809158
425.0075 0.9999999701977251 -15.116744324550824
426.0074 0.9999999703408825 -15.166467522018815
427.0073 0.9999999704830355 -15.216150899432945
