# MHz S MA R 50
!   freq        S11       
0.050000  0.20211  179.79
1.049900  0.20331 -179.61
2.049800  0.20366 -179.81
3.049700  0.20331 -179.94
4.049600  0.20338 -179.73
5.049500  0.20362 -179.78
6.049400  0.20293 -179.95
7.049300  0.20336  179.96
8.049200  0.20337  179.90
9.049100  0.20295 -179.97
10.049000  0.20316  179.88
11.048900  0.20336  179.86
12.048800  0.20292  179.75
13.048700  0.20308  179.78
14.048600  0.20219  179.92
15.048500  0.20299  179.86
16.048400  0.20329  179.78
17.048300  0.20338  179.70
18.048200  0.20328  179.57
19.048100  0.20300  179.68
20.048000  0.20306  179.64
21.047900  0.20279  179.56
22.047800  0.20337  179.65
23.047700  0.20346  179.62
24.047600  0.20359  179.54
25.047500  0.20358  179.54
26.047400  0.20274  179.39
27.047300  0.20322  179.48
28.047200  0.20313  179.39
29.047100  0.20321  179.31
30.047000  0.20311  179.27
31.046900  0.20285  179.24
32.046800  0.20290  179.23
33.046700  0.20323  179.27
34.046600  0.20309  179.16
35.046500  0.20327  178.99
36.046400  0.20297  179.02
37.046300  0.20264  179.06
38.046200  0.20250  179.13
39.046100  0.20298  179.09
40.046000  0.20254  179.13
41.045900  0.20295  179.02
42.045800  0.20294  178.94
43.045700  0.20260  178.98
44.045600  0.20265  178.90
45.045500  0.20295  178.81
46.045400  0.20287  178.94
47.045300  0.20252  178.81
48.045200  0.20351  178.78
49.045100  0.20267  178.80
50.045000  0.20260  178.74
51.044900  0.20249  178.76
52.044800  0.20277  178.79
53.044700  0.20333  178.70
54.044600  0.20362  178.56
55.044500  0.20279  178.61
56.044400  0.20314  178.51
57.044300  0.20286  178.46
58.044200  0.20251  178.53
59.044100  0.20251  178.45
60.044000  0.20261  178.49
61.043900  0.20340  178.37
62.043800  0.20345  178.48
63.043700  0.20287  178.38
64.043600  0.20271  178.26
65.043500  0.20339  178.40
66.043400  0.20366  178.35
67.043300  0.20327  178.17
68.043200  0.20270  178.34
69.043100  0.20305  178.24
70.043000  0.20310  178.20
71.042900  0.20346  178.08
72.042800  0.20329  178.11
73.042700  0.20357  178.20
74.042600  0.20310  178.14
75.042500  0.20335  177.96
76.042400  0.20315  178.02
77.042300  0.20290  178.01
78.042200  0.20298  177.82
79.042100  0.20262  177.90
80.042000  0.20279  177.88
81.041900  0.20263  177.88
82.041800  0.20323  177.90
83.041700  0.20315  177.79
84.041600  0.20282  177.79
85.041500  0.20352  177.77
86.041400  0.20335  177.73
87.041300  0.20260  177.64
88.041200  0.20364  177.65
89.041100  0.20350  177.53
90.041000  0.20288  177.55
91.040900  0.20319  177.80
92.040800  0.20369  177.44
93.040700  0.20271  177.49
94.040600  0.20323  177.73
95.040500  0.20365  177.46
96.040400  0.20356  177.49
97.040300  0.20291  177.38
98.040200  0.20366  177.48
99.040100  0.20362  177.39
100.040000  0.20275  177.34
101.039900  0.20278  177.41
102.039800  0.20282  177.39
103.039700  0.20363  177.25
104.039600  0.20333  177.41
105.039500  0.20324  177.13
106.039400  0.20296  177.16
107.039300  0.20277  177.27
108.039200  0.20350  177.04
109.039100  0.20299  177.07
110.039000  0.20272  176.96
111.038900  0.20300  177.07
112.038800  0.20350  177.16
113.038700  0.20245  177.07
114.038600  0.20337  176.97
115.038500  0.20346  177.07
116.038400  0.20324  176.88
117.038300  0.20299  177.03
118.038200  0.20298  177.17
119.038100  0.20321  176.66
120.038000  0.20315  177.03
121.037900  0.20360  176.82
122.037800  0.20308  176.95
123.037700  0.20317  176.64
124.037600  0.20263  176.73
125.037500  0.20279  176.76
126.037400  0.20251  176.59
127.037300  0.20301  176.71
128.037200  0.20351  176.45
129.037100  0.20302  176.63
130.037000  0.20282  176.57
131.036900  0.20288  176.51
132.036800  0.20357  176.37
133.036700  0.20291  176.71
134.036600  0.20349  176.62
135.036500  0.20327  176.63
136.036400  0.20329  176.26
137.036300  0.20347  176.31
138.036200  0.20361  176.40
139.036100  0.20317  176.59
140.036000  0.20279  176.72
141.035900  0.20318  176.64
142.035800  0.20359  176.19
143.035700  0.20401  176.18
144.035600  0.20382  176.15
145.035500  0.20334  176.47
146.035400  0.20390  176.17
147.035300  0.20364  176.03
148.035200  0.20411  176.01
149.035100  0.20415  176.00
150.035000  0.20357  176.28
151.034900  0.20353  176.20
152.034800  0.20363  175.97
153.034700  0.20424  176.02
154.034600  0.20360  176.14
155.034500  0.20332  176.11
156.034400  0.20414  176.02
157.034300  0.20358  176.01
158.034200  0.20340  176.05
159.034100  0.20334  175.80
160.034000  0.20421  175.93
161.033900  0.20364  175.95
162.033800  0.20346  175.92
163.033700  0.20389  175.88
164.033600  0.20363  175.85
165.033500  0.20376  175.77
166.033400  0.20338  175.92
167.033300  0.20400  175.81
168.033200  0.20408  175.70
169.033100  0.20433  175.58
170.033000  0.20406  175.67
171.032900  0.20410  175.71
172.032800  0.20403  175.64
173.032700  0.20325  175.66
174.032600  0.20362  175.62
175.032500  0.20336  175.58
176.032400  0.20388  175.61
177.032300  0.20369  175.44
178.032200  0.20330  175.63
179.032100  0.20403  175.49
180.032000  0.20398  175.55
181.031900  0.20274  175.38
182.031800  0.20196  175.38
183.031700  0.20212  175.50
184.031600  0.20281  175.37
185.031500  0.20245  175.40
186.031400  0.20274  175.38
187.031300  0.20239  175.42
188.031200  0.20318  175.35
189.031100  0.20333  175.35
190.031000  0.20302  175.34
191.030900  0.20316  175.26
192.030800  0.20286  175.30
193.030700  0.20385  175.12
194.030600  0.20400  175.17
195.030500  0.20325  175.25
196.030400  0.20335  175.33
197.030300  0.20305  175.13
198.030200  0.20315  175.14
199.030100  0.20382  174.81
200.030000  0.20304  175.00
201.029900  0.20411  174.85
202.029800  0.20314  175.09
203.029700  0.20385  174.73
204.029600  0.20314  174.80
205.029500  0.20352  174.77
206.029400  0.20342  174.73
207.029300  0.20383  174.92
208.029200  0.20370  174.85
209.029100  0.20295  174.84
210.029000  0.20370  174.77
211.028900  0.20321  174.69
212.028800  0.20368  174.61
213.028700  0.20263  174.82
214.028600  0.20335  174.62
215.028500  0.20319  174.58
216.028400  0.20303  174.47
217.028300  0.20332  174.47
218.028200  0.20361  174.63
219.028100  0.20344  174.68
220.028000  0.20280  174.49
221.027900  0.20312  174.42
222.027800  0.20267  174.66
223.027700  0.20303  174.38
224.027600  0.20333  174.53
225.027500  0.20299  174.34
226.027400  0.20327  174.46
227.027300  0.20314  174.30
228.027200  0.20287  174.38
229.027100  0.20237  174.55
230.027000  0.20305  174.17
231.026900  0.20334  174.35
232.026800  0.20212  174.16
233.026700  0.20168  174.23
234.026600  0.20209  174.11
235.026500  0.20216  174.05
236.026400  0.20213  174.07
237.026300  0.20205  173.93
238.026200  0.20220  173.88
239.026100  0.20168  174.11
240.026000  0.20215  173.97
241.025900  0.20243  174.05
242.025800  0.20224  174.10
243.025700  0.20202  174.15
244.025600  0.20262  173.84
245.025500  0.20136  174.08
246.025400  0.20169  174.10
247.025300  0.20175  174.12
248.025200  0.20268  173.70
249.025100  0.20142  174.09
250.025000  0.20166  174.04
251.024900  0.20179  173.92
252.024800  0.20139  173.86
253.024700  0.20102  173.87
254.024600  0.20130  173.90
255.024500  0.20213  173.68
256.024400  0.20222  173.58
257.024300  0.20114  173.84
258.024200  0.20205  173.54
259.024100  0.20176  173.50
260.024000  0.20196  173.42
261.023900  0.20086  173.71
262.023800  0.20088  173.71
263.023700  0.20079  173.62
264.023600  0.20162  173.46
265.023500  0.20106  173.60
266.023400  0.20199  173.37
267.023300  0.20168  173.44
268.023200  0.20165  173.27
269.023100  0.20191  173.29
270.023000  0.20170  173.20
271.022900  0.20169  173.23
272.022800  0.20132  173.45
273.022700  0.20078  173.36
274.022600  0.20178  173.20
275.022500  0.20148  173.12
276.022400  0.20086  173.39
277.022300  0.20166  173.06
278.022200  0.20132  173.01
279.022100  0.20141  172.96
280.022000  0.20133  173.17
281.021900  0.20145  172.93
282.021800  0.20061  173.17
283.021700  0.20089  173.17
284.021600  0.20066  173.11
285.021500  0.20111  173.08
286.021400  0.20101  172.97
287.021300  0.20077  172.80
288.021200  0.20174  172.84
289.021100  0.20086  172.90
290.021000  0.20155  172.71
291.020900  0.20065  172.98
292.020800  0.20108  172.81
293.020700  0.20140  172.58
294.020600  0.20127  172.73
295.020500  0.20056  172.79
296.020400  0.20117  172.60
297.020300  0.20083  172.69
298.020200  0.20126  172.55
299.020100  0.20120  172.57
300.020000  0.20098  172.55
301.019900  0.20044  172.44
302.019800  0.20094  172.61
303.019700  0.20071  172.47
304.019600  0.20111  172.53
305.019500  0.20161  172.37
306.019400  0.20094  172.34
307.019300  0.20113  172.20
308.019200  0.20147  172.28
309.019100  0.20097  172.43
310.019000  0.20150  172.33
311.018900  0.20116  172.26
312.018800  0.20129  172.00
313.018700  0.20083  172.19
314.018600  0.20078  172.08
315.018500  0.20086  171.97
316.018400  0.20102  171.98
317.018300  0.20111  171.97
318.018200  0.20089  172.01
319.018100  0.20101  171.91
320.018000  0.20083  171.81
321.017900  0.20082  171.88
322.017800  0.20123  171.83
323.017700  0.20111  171.88
324.017600  0.20098  171.81
325.017500  0.20128  171.92
326.017400  0.20057  171.72
327.017300  0.20084  171.74
328.017200  0.20115  171.70
329.017100  0.20094  171.66
330.017000  0.20112  171.80
331.016900  0.20162  171.61
332.016800  0.20137  171.68
333.016700  0.20121  171.46
334.016600  0.20136  171.57
335.016500  0.20141  171.39
336.016400  0.20132  170.98
337.016300  0.20095  171.33
338.016200  0.20122  171.35
339.016100  0.20155  171.32
340.016000  0.20090  171.29
341.015900  0.20115  171.18
342.015800  0.20110  171.38
343.015700  0.20079  171.22
344.015600  0.20092  171.14
345.015500  0.20139  171.27
346.015400  0.20123  171.26
347.015300  0.20042  171.14
348.015200  0.20148  171.26
349.015100  0.20099  171.15
350.015000  0.20052  170.99
351.014900  0.20141  171.11
352.014800  0.20158  171.16
353.014700  0.20110  171.04
354.014600  0.20135  171.07
355.014500  0.20134  170.90
356.014400  0.20073  170.98
357.014300  0.20130  170.94
358.014200  0.20128  170.87
359.014100  0.20043  170.84
360.014000  0.20077  170.90
361.013900  0.19998  170.54
362.013800  0.19943  170.41
363.013700  0.19930  170.36
364.013600  0.19922  170.34
365.013500  0.19892  170.23
366.013400  0.19897  170.20
367.013300  0.19911  170.20
368.013200  0.19882  170.21
369.013100  0.19956  170.29
370.013000  0.19940  170.13
371.012900  0.19940  170.02
372.012800  0.20002  170.18
373.012700  0.19941  169.96
374.012600  0.19915  170.05
375.012500  0.19990  170.09
376.012400  0.20061  170.34
377.012300  0.19943  170.11
378.012200  0.20049  170.20
379.012100  0.20008  170.32
380.012000  0.19978  170.08
381.011900  0.20059  170.27
382.011800  0.19998  170.22
383.011700  0.19984  170.12
384.011600  0.20046  170.38
385.011500  0.20026  170.18
386.011400  0.19993  170.12
387.011300  0.19997  169.92
388.011200  0.20001  169.96
389.011100  0.20029  169.99
390.011000  0.20045  170.15
391.010900  0.20067  169.94
392.010800  0.20044  170.06
393.010700  0.20023  170.06
394.010600  0.19979  169.91
395.010500  0.20065  169.87
396.010400  0.20034  169.97
397.010300  0.20059  169.73
398.010200  0.20015  169.80
399.010100  0.20072  169.88
400.010000  0.20053  169.93
401.009900  0.20041  169.63
402.009800  0.20115  169.57
403.009700  0.20042  169.69
404.009600  0.20056  169.72
405.009500  0.20044  169.60
406.009400  0.19991  169.74
407.009300  0.19999  169.52
408.009200  0.19981  169.60
409.009100  0.20043  169.36
410.009000  0.20045  169.42
411.008900  0.20019  169.57
412.008800  0.19966  169.66
413.008700  0.20027  169.57
414.008600  0.20023  169.40
415.008500  0.20025  169.53
416.008400  0.19959  169.28
417.008300  0.19996  169.20
418.008200  0.20024  169.27
419.008100  0.20008  169.32
420.008000  0.19977  169.32
421.007900  0.19970  169.15
422.007800  0.19978  169.32
423.007700  0.19986  169.25
424.007600  0.19957  169.36
425.007500  0.19974  169.11
426.007400  0.19994  169.03
427.007300  0.19977  169.06
428.007200  0.20025  169.12
429.007100  0.19991  169.23
430.007000  0.19952  169.09
431.006900  0.19993  168.98
432.006800  0.19931  169.18
433.006700  0.19982  168.90
434.006600  0.19934  168.71
435.006500  0.19947  168.85
436.006400  0.19957  168.81
437.006300  0.19875  168.79
438.006200  0.19915  168.98
439.006100  0.19931  168.89
440.006000  0.19965  168.85
441.005900  0.19928  168.94
442.005800  0.19936  168.86
443.005700  0.19939  168.58
444.005600  0.19896  168.64
445.005500  0.19959  168.68
446.005400  0.19911  168.50
447.005300  0.19896  168.89
448.005200  0.19918  168.56
449.005100  0.19900  168.54
450.005000  0.19908  168.65
451.004900  0.19831  168.45
452.004800  0.19934  168.23
453.004700  0.19830  168.21
454.004600  0.19856  168.42
455.004500  0.19904  168.45
456.004400  0.19842  168.18
457.004300  0.19936  168.21
458.004200  0.19838  168.57
459.004100  0.19863  167.99
460.004000  0.19833  168.14
461.003900  0.19926  168.20
462.003800  0.19861  168.04
463.003700  0.19836  168.10
464.003600  0.19889  167.32
465.003500  0.19909  167.61
466.003400  0.19859  167.73
467.003300  0.19888  167.20
468.003200  0.19924  167.59
469.003100  0.19917  167.09
470.003000  0.19949  167.14
471.002900  0.19935  167.38
472.002800  0.19892  167.53
473.002700  0.19887  167.41
474.002600  0.19925  167.73
475.002500  0.19834  167.66
476.002400  0.19791  167.53
477.002300  0.19923  167.76
478.002200  0.19885  167.54
479.002100  0.19856  167.68
480.002000  0.19795  167.42
481.001900  0.19849  167.35
482.001800  0.19751  167.36
483.001700  0.19839  167.46
484.001600  0.19833  167.25
485.001500  0.19809  167.04
486.001400  0.19788  167.14
487.001300  0.19890  167.32
488.001200  0.19801  167.16
489.001100  0.19815  167.44
490.001000  0.19787  166.92
491.000900  0.19818  167.03
492.000800  0.19790  167.48
493.000700  0.19831  167.45
494.000600  0.19833  167.22
495.000500  0.19812  167.28
496.000400  0.19811  167.02
497.000300  0.19823  166.95
498.000200  0.19787  167.16
499.000100  0.19814  166.64
500.000000  0.19796  167.09
