# MHz S MA R 50
!   freq        S11       
0.050000  0.20702    0.10
1.049900  0.20780    0.35
2.049800  0.20860    0.02
3.049700  0.20767    0.41
4.049600  0.20764    0.19
5.049500  0.20707    0.38
6.049400  0.20739    0.35
7.049300  0.20750    0.15
8.049200  0.20762   -0.05
9.049100  0.20748    0.00
10.049000  0.20786   -0.11
11.048900  0.20785   -0.05
12.048800  0.20752    0.13
13.048700  0.20639    0.34
14.048600  0.20737    0.02
15.048500  0.20741   -0.02
16.048400  0.20721    0.03
17.048300  0.20738   -0.03
18.048200  0.20666    0.13
19.048100  0.20699   -0.06
20.048000  0.20765   -0.32
21.047900  0.20750   -0.17
22.047800  0.20744   -0.14
23.047700  0.20685   -0.13
24.047600  0.20799   -0.29
25.047500  0.20750   -0.30
26.047400  0.20715   -0.02
27.047300  0.20729   -0.11
28.047200  0.20772   -0.35
29.047100  0.20731   -0.44
30.047000  0.20681   -0.18
31.046900  0.20684   -0.03
32.046800  0.20624   -0.10
33.046700  0.20718   -0.41
34.046600  0.20711   -0.27
35.046500  0.20622   -0.13
36.046400  0.20649   -0.10
37.046300  0.20684   -0.17
38.046200  0.20744   -0.64
39.046100  0.20687   -0.58
40.046000  0.20641   -0.22
41.045900  0.20726   -0.61
42.045800  0.20704   -0.46
43.045700  0.20624   -0.39
44.045600  0.20608   -0.34
45.045500  0.20666   -0.34
46.045400  0.20686   -0.58
47.045300  0.20633   -0.71
48.045200  0.20625   -0.46
49.045100  0.20659   -0.58
50.045000  0.20667   -0.56
51.044900  0.20579   -0.45
52.044800  0.20591   -0.52
53.044700  0.20690   -0.66
54.044600  0.20671   -0.59
55.044500  0.20582   -0.55
56.044400  0.20605   -0.46
57.044300  0.20710   -0.87
58.044200  0.20661   -0.96
59.044100  0.20716   -0.95
60.044000  0.20604   -0.77
61.043900  0.20582   -0.65
62.043800  0.20618   -0.73
63.043700  0.20657   -1.09
64.043600  0.20676   -0.97
65.043500  0.20518   -0.78
66.043400  0.20602   -1.00
67.043300  0.20663   -1.14
68.043200  0.20683   -1.16
69.043100  0.20567   -0.88
70.043000  0.20592   -0.89
71.042900  0.20583   -0.92
72.042800  0.20590   -0.98
73.042700  0.20654   -1.06
74.042600  0.20584   -1.26
75.042500  0.20609   -0.93
76.042400  0.20602   -1.27
77.042300  0.20548   -1.31
78.042200  0.20709   -1.25
79.042100  0.20716   -1.38
80.042000  0.20690   -1.21
81.041900  0.20655   -1.31
82.041800  0.20609   -1.22
83.041700  0.20676   -1.24
84.041600  0.20671   -1.45
85.041500  0.20685   -1.43
86.041400  0.20582   -1.22
87.041300  0.20618   -1.53
88.041200  0.20603   -1.56
89.041100  0.20578   -1.40
90.041000  0.20664   -1.35
91.040900  0.20575   -1.46
92.040800  0.20705   -1.51
93.040700  0.20652   -1.48
94.040600  0.20601   -1.47
95.040500  0.20652   -1.71
96.040400  0.20680   -1.64
97.040300  0.20632   -1.57
98.040200  0.20650   -1.76
99.040100  0.20663   -1.80
100.040000  0.20626   -1.80
101.039900  0.20626   -1.76
102.039800  0.20596   -1.87
103.039700  0.20625   -1.83
104.039600  0.20596   -1.62
105.039500  0.20678   -1.94
106.039400  0.20629   -1.71
107.039300  0.20619   -1.81
108.039200  0.20573   -2.01
109.039100  0.20608   -2.03
110.039000  0.20618   -2.00
111.038900  0.20630   -1.91
112.038800  0.20605   -1.92
113.038700  0.20659   -1.92
114.038600  0.20582   -2.21
115.038500  0.20638   -1.89
116.038400  0.20597   -2.13
117.038300  0.20686   -1.98
118.038200  0.20580   -2.14
119.038100  0.20676   -2.05
120.038000  0.20610   -1.99
121.037900  0.20593   -2.19
122.037800  0.20636   -2.32
123.037700  0.20655   -2.35
124.037600  0.20656   -2.10
125.037500  0.20594   -2.46
126.037400  0.20579   -2.42
127.037300  0.20628   -2.23
128.037200  0.20672   -2.24
129.037100  0.20615   -2.42
130.037000  0.20644   -2.33
131.036900  0.20609   -2.50
132.036800  0.20638   -2.49
133.036700  0.20659   -2.60
134.036600  0.20580   -2.52
135.036500  0.20626   -2.63
136.036400  0.20630   -2.64
137.036300  0.20682   -2.53
138.036200  0.20657   -2.62
139.036100  0.20642   -2.67
140.036000  0.20682   -2.90
141.035900  0.20674   -2.77
142.035800  0.20630   -2.80
143.035700  0.20674   -2.72
144.035600  0.20630   -2.97
145.035500  0.20658   -3.03
146.035400  0.20699   -3.01
147.035300  0.20695   -2.95
148.035200  0.20631   -2.78
149.035100  0.20591   -2.75
150.035000  0.20666   -3.10
151.034900  0.20662   -2.88
152.034800  0.20574   -2.98
153.034700  0.20664   -3.17
154.034600  0.20578   -3.19
155.034500  0.20615   -2.97
156.034400  0.20688   -3.21
157.034300  0.20693   -3.20
158.034200  0.20690   -3.29
159.034100  0.20682   -3.16
160.034000  0.20674   -3.21
161.033900  0.20644   -3.30
162.033800  0.20589   -3.28
163.033700  0.20629   -3.18
164.033600  0.20645   -3.30
165.033500  0.20560   -3.08
166.033400  0.20569   -3.22
167.033300  0.20558   -3.27
168.033200  0.20673   -3.29
169.033100  0.20649   -3.33
170.033000  0.20682   -3.38
171.032900  0.20668   -3.71
172.032800  0.20587   -3.49
173.032700  0.20636   -3.66
174.032600  0.20596   -3.67
175.032500  0.20648   -3.38
176.032400  0.20596   -3.68
177.032300  0.20671   -3.71
178.032200  0.20655   -3.60
179.032100  0.20680   -3.73
180.032000  0.20621   -3.78
181.031900  0.20688   -3.80
182.031800  0.20673   -4.01
183.031700  0.20725   -3.96
184.031600  0.20689   -4.03
185.031500  0.20703   -3.89
186.031400  0.20647   -3.82
187.031300  0.20708   -3.86
188.031200  0.20685   -4.01
189.031100  0.20634   -4.00
190.031000  0.20619   -4.00
191.030900  0.20656   -4.03
192.030800  0.20634   -4.04
193.030700  0.20646   -4.10
194.030600  0.20641   -4.09
195.030500  0.20705   -4.05
196.030400  0.20653   -3.94
197.030300  0.20664   -4.04
198.030200  0.20675   -4.31
199.030100  0.20701   -4.23
200.030000  0.20615   -4.05
201.029900  0.20644   -4.01
202.029800  0.20678   -4.34
203.029700  0.20690   -4.25
204.029600  0.20677   -4.46
205.029500  0.20619   -4.28
206.029400  0.20619   -4.38
207.029300  0.20681   -4.42
208.029200  0.20649   -4.18
209.029100  0.20665   -4.28
210.029000  0.20674   -4.31
211.028900  0.20603   -4.54
212.028800  0.20640   -4.29
213.028700  0.20714   -4.66
214.028600  0.20693   -4.47
215.028500  0.20697   -4.70
216.028400  0.20653   -4.40
217.028300  0.20674   -4.47
218.028200  0.20671   -4.76
219.028100  0.20704   -4.79
220.028000  0.20623   -4.59
221.027900  0.20667   -4.58
222.027800  0.20687   -4.78
223.027700  0.20626   -4.79
224.027600  0.20610   -4.57
225.027500  0.20677   -4.93
226.027400  0.20643   -4.94
227.027300  0.20664   -5.05
228.027200  0.20642   -4.66
229.027100  0.20633   -4.73
230.027000  0.20693   -4.98
231.026900  0.20644   -4.71
232.026800  0.20723   -4.91
233.026700  0.20712   -5.12
234.026600  0.20778   -4.84
235.026500  0.20689   -5.06
236.026400  0.20709   -4.90
237.026300  0.20714   -4.99
238.026200  0.20731   -4.96
239.026100  0.20748   -4.94
240.026000  0.20679   -5.31
241.025900  0.20689   -5.14
242.025800  0.20703   -5.30
243.025700  0.20681   -5.03
244.025600  0.20722   -5.07
245.025500  0.20703   -5.23
246.025400  0.20661   -5.08
247.025300  0.20645   -5.37
248.025200  0.20699   -5.22
249.025100  0.20671   -5.48
250.025000  0.20705   -5.20
251.024900  0.20631   -5.14
252.024800  0.20711   -5.26
253.024700  0.20670   -5.24
254.024600  0.20681   -5.24
255.024500  0.20703   -5.75
256.024400  0.20705   -5.29
257.024300  0.20670   -5.41
258.024200  0.20716   -5.71
259.024100  0.20730   -5.49
260.024000  0.20731   -5.48
261.023900  0.20737   -5.87
262.023800  0.20741   -5.59
263.023700  0.20740   -5.89
264.023600  0.20680   -5.45
265.023500  0.20713   -5.91
266.023400  0.20738   -5.75
267.023300  0.20722   -5.62
268.023200  0.20736   -5.62
269.023100  0.20712   -5.89
270.023000  0.20692   -5.70
271.022900  0.20739   -5.81
272.022800  0.20730   -5.71
273.022700  0.20728   -5.96
274.022600  0.20749   -6.23
275.022500  0.20773   -6.22
276.022400  0.20765   -5.85
277.022300  0.20748   -5.83
278.022200  0.20738   -6.02
279.022100  0.20773   -6.07
280.022000  0.20789   -6.17
281.021900  0.20747   -5.87
282.021800  0.20794   -6.39
283.021700  0.20811   -6.12
284.021600  0.20772   -6.24
285.021500  0.20780   -6.37
286.021400  0.20755   -6.07
287.021300  0.20845   -6.23
288.021200  0.20739   -6.57
289.021100  0.20790   -6.42
290.021000  0.20799   -6.42
291.020900  0.20843   -6.28
292.020800  0.20782   -6.26
293.020700  0.20769   -6.55
294.020600  0.20747   -6.21
295.020500  0.20782   -6.47
296.020400  0.20823   -6.61
297.020300  0.20753   -6.36
298.020200  0.20777   -6.28
299.020100  0.20758   -6.38
300.020000  0.20824   -6.64
301.019900  0.20771   -6.40
302.019800  0.20784   -6.52
303.019700  0.20858   -6.68
304.019600  0.20757   -6.64
305.019500  0.20778   -6.61
306.019400  0.20841   -6.54
307.019300  0.20781   -6.55
308.019200  0.20786   -6.63
309.019100  0.20728   -6.60
310.019000  0.20757   -6.56
311.018900  0.20753   -6.56
312.018800  0.20828   -6.61
313.018700  0.20754   -6.64
314.018600  0.20770   -6.77
315.018500  0.20856   -6.74
316.018400  0.20716   -6.71
317.018300  0.20809   -6.81
318.018200  0.20802   -6.77
319.018100  0.20750   -6.84
320.018000  0.20757   -6.68
321.017900  0.20724   -6.89
322.017800  0.20824   -6.88
323.017700  0.20734   -6.95
324.017600  0.20712   -6.89
325.017500  0.20791   -7.02
326.017400  0.20766   -6.86
327.017300  0.20708   -6.89
328.017200  0.20724   -6.98
329.017100  0.20729   -7.06
330.017000  0.20744   -6.90
331.016900  0.20777   -7.10
332.016800  0.20708   -7.17
333.016700  0.20769   -7.02
334.016600  0.20786   -7.26
335.016500  0.20724   -7.15
336.016400  0.20782   -7.30
337.016300  0.20818   -7.21
338.016200  0.20782   -7.16
339.016100  0.20772   -7.08
340.016000  0.20802   -7.32
341.015900  0.20781   -7.23
342.015800  0.20789   -7.35
343.015700  0.20792   -7.21
344.015600  0.20812   -7.19
345.015500  0.20784   -7.23
346.015400  0.20723   -7.39
347.015300  0.20751   -7.34
348.015200  0.20709   -7.54
349.015100  0.20677   -7.49
350.015000  0.20687   -7.42
351.014900  0.20755   -7.61
352.014800  0.20677   -7.73
353.014700  0.20693   -7.66
354.014600  0.20698   -7.48
355.014500  0.20643   -7.61
356.014400  0.20726   -7.60
357.014300  0.20709   -7.66
358.014200  0.20733   -7.75
359.014100  0.20692   -7.83
360.014000  0.20713   -8.06
361.013900  0.20735   -7.66
362.013800  0.20759   -7.56
363.013700  0.20724   -7.48
364.013600  0.20687   -7.75
365.013500  0.20824   -7.74
366.013400  0.20778   -7.62
367.013300  0.20781   -7.53
368.013200  0.20785   -7.69
369.013100  0.20736   -7.72
370.013000  0.20717   -7.70
371.012900  0.20737   -7.70
372.012800  0.20716   -7.72
373.012700  0.20775   -7.73
374.012600  0.20807   -7.92
375.012500  0.20794   -7.78
376.012400  0.20719   -7.98
377.012300  0.20803   -7.95
378.012200  0.20702   -8.10
379.012100  0.20781   -8.13
380.012000  0.20761   -8.00
381.011900  0.20693   -8.33
382.011800  0.20737   -8.15
383.011700  0.20760   -8.14
384.011600  0.20695   -8.48
385.011500  0.20630   -8.46
386.011400  0.20725   -8.31
387.011300  0.20682   -8.27
388.011200  0.20660   -8.36
389.011100  0.20750   -8.33
390.011000  0.20747   -8.57
391.010900  0.20698   -8.36
392.010800  0.20703   -8.48
393.010700  0.20794   -8.56
394.010600  0.20695   -8.59
395.010500  0.20733   -8.61
396.010400  0.20721   -8.51
397.010300  0.20781   -8.47
398.010200  0.20713   -8.57
399.010100  0.20689   -8.73
400.010000  0.20680   -8.76
401.009900  0.20717   -8.66
402.009800  0.20677   -8.70
403.009700  0.20707   -8.94
404.009600  0.20653   -8.86
405.009500  0.20664   -8.86
406.009400  0.20731   -8.77
407.009300  0.20729   -8.71
408.009200  0.20747   -8.61
409.009100  0.20719   -8.80
410.009000  0.20630   -8.91
411.008900  0.20675   -8.91
412.008800  0.20768   -8.88
413.008700  0.20659   -9.09
414.008600  0.20780   -8.90
415.008500  0.20616   -9.10
416.008400  0.20792   -9.00
417.008300  0.20798   -9.04
418.008200  0.20787   -9.03
419.008100  0.20705   -9.19
420.008000  0.20775   -8.99
421.007900  0.20746   -8.92
422.007800  0.20766   -9.32
423.007700  0.20713   -9.11
424.007600  0.20768   -9.26
425.007500  0.20779   -9.28
426.007400  0.20746   -9.19
427.007300  0.20733   -9.17
428.007200  0.20719   -9.22
429.007100  0.20695   -9.47
430.007000  0.20807   -9.20
431.006900  0.20681   -9.48
432.006800  0.20757   -9.52
433.006700  0.20682   -9.53
434.006600  0.20739   -9.43
435.006500  0.20756   -9.34
436.006400  0.20744   -9.51
437.006300  0.20760   -9.36
438.006200  0.20715   -9.72
439.006100  0.20761   -9.50
440.006000  0.20714   -9.57
441.005900  0.20714   -9.62
442.005800  0.20734   -9.65
443.005700  0.20788   -9.52
444.005600  0.20721   -9.74
445.005500  0.20764   -9.44
446.005400  0.20717   -9.67
447.005300  0.20792   -9.65
448.005200  0.20746   -9.65
449.005100  0.20769   -9.56
450.005000  0.20788   -9.60
451.004900  0.20774   -9.71
452.004800  0.20748   -9.68
453.004700  0.20843   -9.62
454.004600  0.20751   -9.77
455.004500  0.20722   -9.88
456.004400  0.20679   -9.74
457.004300  0.20789   -9.75
458.004200  0.20743   -9.87
459.004100  0.20660   -9.87
460.004000  0.20691   -9.83
461.003900  0.20711   -9.82
462.003800  0.20758   -9.90
463.003700  0.20662   -9.97
464.003600  0.20651   -9.67
465.003500  0.20682   -9.79
466.003400  0.20672   -9.72
467.003300  0.20715   -9.59
468.003200  0.20648   -9.90
469.003100  0.20611   -9.66
470.003000  0.20623   -9.70
471.002900  0.20637   -9.69
472.002800  0.20722   -9.86
473.002700  0.20706   -9.94
474.002600  0.20802  -10.07
475.002500  0.20802  -10.18
476.002400  0.20695  -10.08
477.002300  0.20772  -10.13
478.002200  0.20707  -10.15
479.002100  0.20737  -10.31
480.002000  0.20815  -10.01
481.001900  0.20649  -10.01
482.001800  0.20838  -10.29
483.001700  0.20817  -10.46
484.001600  0.20882  -10.23
485.001500  0.20831  -10.27
486.001400  0.20798  -10.49
487.001300  0.20758  -10.26
488.001200  0.20662  -10.36
489.001100  0.20782  -10.53
490.001000  0.20635  -10.36
491.000900  0.20649  -10.40
492.000800  0.20663  -10.34
493.000700  0.20776  -10.56
494.000600  0.20707  -10.59
495.000500  0.20711  -10.48
496.000400  0.20825  -10.56
497.000300  0.20734  -10.62
498.000200  0.20652  -10.61
499.000100  0.20680  -10.36
500.000000  0.20637  -10.63
