# MHz S MA R 50
!   freq        S11       
0.050000  0.00222   -6.39
1.049900  0.01651  -85.40
2.049800  0.03217  -89.13
3.049700  0.04810  -90.87
4.049600  0.06394  -92.41
5.049500  0.08011  -93.64
6.049400  0.09659  -94.43
7.049300  0.11373  -95.24
8.049200  0.12985  -96.57
9.049100  0.14674  -97.19
10.049000  0.16456  -98.52
11.048900  0.18180  -99.73
12.048800  0.19948 -100.78
13.048700  0.21765 -101.85
14.048600  0.23628 -103.08
15.048500  0.25445 -104.20
16.048400  0.27482 -105.53
17.048300  0.29498 -106.79
18.048200  0.31546 -108.02
19.048100  0.33627 -109.38
20.048000  0.35803 -110.80
21.047900  0.38061 -112.20
22.047800  0.40344 -113.81
23.047700  0.42776 -115.39
24.047600  0.45171 -116.99
25.047500  0.47585 -118.56
26.047400  0.50322 -120.35
27.047300  0.52876 -122.21
28.047200  0.55743 -124.26
29.047100  0.58444 -126.30
30.047000  0.61371 -128.44
31.046900  0.64206 -130.62
32.046800  0.67107 -133.02
33.046700  0.70072 -135.55
34.046600  0.73073 -138.12
35.046500  0.76011 -140.82
36.046400  0.78889 -143.69
37.046300  0.81714 -146.68
38.046200  0.84470 -149.69
39.046100  0.86923 -152.94
40.046000  0.89157 -156.15
41.045900  0.91261 -159.48
42.045800  0.93119 -163.02
43.045700  0.94570 -166.48
44.045600  0.95608 -170.03
45.045500  0.96413 -173.57
46.045400  0.96726 -177.08
47.045300  0.96550  179.46
48.045200  0.96154  176.03
49.045100  0.95462  172.84
50.045000  0.94371  169.55
51.044900  0.92918  166.46
52.044800  0.91369  163.53
53.044700  0.89628  160.63
54.044600  0.87682  158.00
55.044500  0.85647  155.57
56.044400  0.83617  153.31
57.044300  0.81370  151.00
58.044200  0.79230  149.04
59.044100  0.77120  147.09
60.044000  0.74981  145.39
61.043900  0.72824  143.64
62.043800  0.70887  142.24
63.043700  0.68962  140.76
64.043600  0.67007  139.40
65.043500  0.65177  138.32
66.043400  0.63464  137.14
67.043300  0.61719  136.08
68.043200  0.59962  135.26
69.043100  0.58549  134.45
70.043000  0.56930  133.65
71.042900  0.55451  132.93
72.042800  0.54055  132.26
73.042700  0.52750  131.75
74.042600  0.51502  131.17
75.042500  0.50385  130.50
76.042400  0.49164  130.19
77.042300  0.48028  129.94
78.042200  0.46964  129.42
79.042100  0.45947  129.13
80.042000  0.44969  128.89
81.041900  0.43967  128.65
82.041800  0.43084  128.47
83.041700  0.42250  128.26
84.041600  0.41334  128.08
85.041500  0.40593  127.89
86.041400  0.39868  127.94
87.041300  0.39136  127.62
88.041200  0.38369  127.68
89.041100  0.37802  127.59
90.041000  0.37104  127.57
91.040900  0.36469  127.51
92.040800  0.35873  127.53
93.040700  0.35203  127.48
94.040600  0.34750  127.49
95.040500  0.34221  127.57
96.040400  0.33673  127.49
97.040300  0.33272  127.59
98.040200  0.32760  127.68
99.040100  0.32351  127.67
100.040000  0.31864  127.73
101.039900  0.31452  127.86
102.039800  0.30957  128.05
103.039700  0.30634  127.95
104.039600  0.30291  128.11
105.039500  0.29898  128.01
106.039400  0.29553  128.30
107.039300  0.29106  128.47
108.039200  0.28808  128.61
109.039100  0.28525  128.63
110.039000  0.28172  128.55
111.038900  0.27895  128.84
112.038800  0.27580  128.99
113.038700  0.27335  129.06
114.038600  0.26940  129.10
115.038500  0.26673  129.15
116.038400  0.26382  129.49
117.038300  0.26127  129.45
118.038200  0.25859  129.69
119.038100  0.25680  129.82
120.038000  0.25496  129.73
121.037900  0.25252  129.93
122.037800  0.24965  130.27
123.037700  0.24713  130.39
124.037600  0.24570  130.20
125.037500  0.24256  130.31
126.037400  0.24169  130.54
127.037300  0.23943  130.61
128.037200  0.23688  130.89
129.037100  0.23514  130.88
130.037000  0.23227  131.15
131.036900  0.23134  131.29
132.036800  0.22963  131.22
133.036700  0.22766  131.40
134.036600  0.22670  131.59
135.036500  0.22338  132.02
136.036400  0.22248  132.06
137.036300  0.22126  131.94
138.036200  0.21891  132.23
139.036100  0.21715  132.48
140.036000  0.21793  132.61
141.035900  0.21617  132.67
142.035800  0.21544  132.82
143.035700  0.21335  132.98
144.035600  0.21249  133.04
145.035500  0.21038  133.34
146.035400  0.20915  133.38
147.035300  0.20834  133.37
148.035200  0.20717  133.68
149.035100  0.20532  133.89
150.035000  0.20443  133.92
151.034900  0.20286  134.13
152.034800  0.20141  134.25
153.034700  0.20111  134.15
154.034600  0.19985  134.42
155.034500  0.19768  134.58
156.034400  0.19730  134.60
157.034300  0.19547  135.03
158.034200  0.19484  135.08
159.034100  0.19271  135.27
160.034000  0.19270  135.23
161.033900  0.19130  135.57
162.033800  0.18956  135.50
163.033700  0.18864  135.55
164.033600  0.18759  135.87
165.033500  0.18732  136.04
166.033400  0.18578  136.03
167.033300  0.18437  136.41
168.033200  0.18389  136.46
169.033100  0.18222  136.68
170.033000  0.18134  136.68
171.032900  0.18030  136.85
172.032800  0.17931  136.99
173.032700  0.17861  136.97
174.032600  0.17800  137.13
175.032500  0.17703  137.27
176.032400  0.17602  137.69
177.032300  0.17460  137.83
178.032200  0.17382  137.98
179.032100  0.17289  138.13
180.032000  0.17212  138.42
181.031900  0.17024  138.38
182.031800  0.16990  138.22
183.031700  0.16926  138.68
184.031600  0.16810  138.67
185.031500  0.16759  138.69
186.031400  0.16728  138.79
187.031300  0.16570  139.24
188.031200  0.16561  139.43
189.031100  0.16451  139.79
190.031000  0.16393  139.52
191.030900  0.16340  139.61
192.030800  0.16193  139.97
193.030700  0.16205  139.97
194.030600  0.16051  140.41
195.030500  0.16005  140.51
196.030400  0.15943  140.58
197.030300  0.15852  140.90
198.030200  0.15858  140.68
199.030100  0.15708  140.95
200.030000  0.15645  141.16
201.029900  0.15623  141.32
202.029800  0.15567  141.37
203.029700  0.15496  141.45
204.029600  0.15365  141.90
205.029500  0.15317  142.24
206.029400  0.15295  142.27
207.029300  0.15241  142.43
208.029200  0.15138  142.61
209.029100  0.15078  142.72
210.029000  0.14986  142.77
211.028900  0.14994  142.63
212.028800  0.14951  142.87
213.028700  0.14812  143.19
214.028600  0.14819  143.21
215.028500  0.14759  143.65
216.028400  0.14628  143.79
217.028300  0.14613  144.06
218.028200  0.14597  143.98
219.028100  0.14543  144.12
220.028000  0.14432  144.40
221.027900  0.14441  144.46
222.027800  0.14298  144.83
223.027700  0.14270  144.70
224.027600  0.14242  145.22
225.027500  0.14212  145.05
226.027400  0.14099  145.45
227.027300  0.14069  145.36
228.027200  0.14080  145.59
229.027100  0.13972  146.02
230.027000  0.13917  146.00
231.026900  0.13925  145.95
232.026800  0.13818  146.03
233.026700  0.13790  145.94
234.026600  0.13654  145.65
235.026500  0.13621  145.76
236.026400  0.13573  146.17
237.026300  0.13543  146.48
238.026200  0.13495  146.67
239.026100  0.13484  146.87
240.026000  0.13446  147.17
241.025900  0.13418  147.53
242.025800  0.13383  147.79
243.025700  0.13310  148.13
244.025600  0.13285  148.18
245.025500  0.13284  148.53
246.025400  0.13210  148.57
247.025300  0.13207  148.57
248.025200  0.13128  148.94
249.025100  0.13132  149.08
250.025000  0.13013  149.10
251.024900  0.12989  149.35
252.024800  0.12988  149.52
253.024700  0.12907  149.61
254.024600  0.12859  149.91
255.024500  0.12903  150.25
256.024400  0.12820  150.11
257.024300  0.12765  150.34
258.024200  0.12738  150.40
259.024100  0.12657  150.63
260.024000  0.12639  150.75
261.023900  0.12657  150.78
262.023800  0.12548  151.13
263.023700  0.12515  151.11
264.023600  0.12476  151.08
265.023500  0.12464  151.35
266.023400  0.12431  151.61
267.023300  0.12365  152.08
268.023200  0.12322  151.93
269.023100  0.12313  152.21
270.023000  0.12280  152.49
271.022900  0.12241  152.73
272.022800  0.12238  152.78
273.022700  0.12186  152.97
274.022600  0.12189  153.21
275.022500  0.12129  153.30
276.022400  0.12110  153.73
277.022300  0.12082  153.66
278.022200  0.12015  153.76
279.022100  0.12007  153.90
280.022000  0.12018  154.04
281.021900  0.11937  154.06
282.021800  0.11907  154.22
283.021700  0.11850  154.32
284.021600  0.11869  154.44
285.021500  0.11790  154.61
286.021400  0.11747  154.67
287.021300  0.11731  154.72
288.021200  0.11725  155.16
289.021100  0.11675  154.94
290.021000  0.11644  155.05
291.020900  0.11607  155.40
292.020800  0.11583  155.53
293.020700  0.11564  155.69
294.020600  0.11518  155.88
295.020500  0.11493  155.96
296.020400  0.11460  156.12
297.020300  0.11460  156.24
298.020200  0.11439  156.46
299.020100  0.11427  156.81
300.020000  0.11397  156.91
301.019900  0.11348  156.92
302.019800  0.11344  157.22
303.019700  0.11288  157.29
304.019600  0.11313  157.52
305.019500  0.11279  157.67
306.019400  0.11245  157.74
307.019300  0.11257  158.12
308.019200  0.11230  158.07
309.019100  0.11179  158.44
310.019000  0.11184  158.59
311.018900  0.11140  158.66
312.018800  0.11099  158.75
313.018700  0.11092  158.95
314.018600  0.11074  159.20
315.018500  0.11040  159.13
316.018400  0.11023  159.43
317.018300  0.11011  159.74
318.018200  0.10989  160.04
319.018100  0.11007  160.05
320.018000  0.10944  160.12
321.017900  0.10939  160.36
322.017800  0.10914  160.57
323.017700  0.10901  160.90
324.017600  0.10876  160.98
325.017500  0.10843  161.08
326.017400  0.10840  161.19
327.017300  0.10830  161.51
328.017200  0.10810  161.50
329.017100  0.10811  161.79
330.017000  0.10775  161.94
331.016900  0.10803  162.07
332.016800  0.10773  162.33
333.016700  0.10745  162.35
334.016600  0.10748  162.76
335.016500  0.10702  163.00
336.016400  0.10691  162.57
337.016300  0.10682  163.15
338.016200  0.10679  163.41
339.016100  0.10668  163.54
340.016000  0.10637  163.75
341.015900  0.10645  164.07
342.015800  0.10605  164.27
343.015700  0.10555  164.21
344.015600  0.10569  164.46
345.015500  0.10586  164.69
346.015400  0.10577  165.05
347.015300  0.10545  164.88
348.015200  0.10577  165.54
349.015100  0.10545  165.60
350.015000  0.10502  165.47
351.014900  0.10521  166.06
352.014800  0.10558  166.34
353.014700  0.10508  166.29
354.014600  0.10505  166.66
355.014500  0.10502  166.60
356.014400  0.10440  166.72
357.014300  0.10465  167.05
358.014200  0.10449  167.22
359.014100  0.10414  167.47
360.014000  0.10396  167.75
361.013900  0.10350  167.44
362.013800  0.10380  167.59
363.013700  0.10356  167.69
364.013600  0.10341  167.61
365.013500  0.10304  167.67
366.013400  0.10324  167.87
367.013300  0.10313  168.33
368.013200  0.10261  168.50
369.013100  0.10315  168.73
370.013000  0.10306  168.82
371.012900  0.10299  169.03
372.012800  0.10259  169.17
373.012700  0.10261  169.20
374.012600  0.10242  169.54
375.012500  0.10230  169.63
376.012400  0.10293  170.39
377.012300  0.10198  170.24
378.012200  0.10264  170.95
379.012100  0.10204  171.24
380.012000  0.10191  170.90
381.011900  0.10204  171.48
382.011800  0.10161  171.61
383.011700  0.10168  171.72
384.011600  0.10186  172.49
385.011500  0.10216  172.56
386.011400  0.10176  172.34
387.011300  0.10138  172.37
388.011200  0.10178  172.70
389.011100  0.10182  172.59
390.011000  0.10162  173.38
391.010900  0.10144  173.12
392.010800  0.10141  173.56
393.010700  0.10102  173.76
394.010600  0.10112  173.96
395.010500  0.10126  174.03
396.010400  0.10146  174.38
397.010300  0.10104  174.23
398.010200  0.10092  174.25
399.010100  0.10113  174.87
400.010000  0.10105  175.15
401.009900  0.10072  174.84
402.009800  0.10111  175.09
403.009700  0.10107  175.36
404.009600  0.10128  175.61
405.009500  0.10086  175.83
406.009400  0.10048  175.80
407.009300  0.10031  175.78
408.009200  0.10042  176.23
409.009100  0.10066  176.15
410.009000  0.10095  176.40
411.008900  0.10048  176.84
412.008800  0.10001  176.88
413.008700  0.10076  177.12
414.008600  0.10044  177.27
415.008500  0.10079  177.45
416.008400  0.10002  177.52
417.008300  0.09986  177.71
418.008200  0.10006  177.83
419.008100  0.10048  178.21
420.008000  0.10016  178.22
421.007900  0.09983  178.16
422.007800  0.10035  178.82
423.007700  0.09976  178.69
424.007600  0.10014  179.06
425.007500  0.10021  178.98
426.007400  0.10021  178.93
427.007300  0.09993  179.35
428.007200  0.10050  179.55
429.007100  0.09989  179.87
430.007000  0.09954  179.81
431.006900  0.09995  179.79
432.006800  0.10004 -179.77
433.006700  0.09998 -179.63
434.006600  0.09965 -179.62
435.006500  0.09991 -179.91
436.006400  0.10004 -179.33
437.006300  0.09989 -179.19
438.006200  0.10095 -179.27
439.006100  0.10005 -179.15
440.006000  0.10024 -179.03
441.005900  0.10062 -178.59
442.005800  0.09984 -178.35
443.005700  0.10000 -178.52
444.005600  0.10044 -178.18
445.005500  0.10089 -178.44
446.005400  0.10033 -177.84
447.005300  0.10073 -177.75
448.005200  0.10025 -177.78
449.005100  0.10039 -177.78
450.005000  0.10080 -177.64
451.004900  0.09989 -177.09
452.004800  0.10030 -177.50
453.004700  0.10070 -177.24
454.004600  0.10014 -176.89
455.004500  0.10100 -176.91
456.004400  0.10125 -176.87
457.004300  0.10120 -176.78
458.004200  0.10092 -176.18
459.004100  0.10086 -176.32
460.004000  0.10121 -176.44
461.003900  0.10132 -176.10
462.003800  0.10100 -175.85
463.003700  0.10142 -175.76
464.003600  0.09992 -175.72
465.003500  0.09959 -175.39
466.003400  0.09974 -175.47
467.003300  0.09998 -175.48
468.003200  0.10022 -175.44
469.003100  0.09985 -175.29
470.003000  0.10025 -175.06
471.002900  0.10007 -174.79
472.002800  0.10008 -174.35
473.002700  0.10042 -174.09
474.002600  0.10170 -174.40
475.002500  0.10071 -173.97
476.002400  0.10077 -173.75
477.002300  0.10134 -173.78
478.002200  0.10105 -173.60
479.002100  0.10133 -173.17
480.002000  0.10143 -173.28
481.001900  0.10209 -173.52
482.001800  0.10077 -172.85
483.001700  0.10198 -172.54
484.001600  0.10167 -172.86
485.001500  0.10172 -172.54
486.001400  0.10201 -172.34
487.001300  0.10269 -172.84
488.001200  0.10164 -172.11
489.001100  0.10228 -171.82
490.001000  0.10234 -171.98
491.000900  0.10252 -171.27
492.000800  0.10205 -171.65
493.000700  0.10265 -171.40
494.000600  0.10309 -171.44
495.000500  0.10270 -171.32
496.000400  0.10230 -171.16
497.000300  0.10264 -170.96
498.000200  0.10335 -170.84
499.000100  0.10303 -170.76
500.000000  0.10327 -170.78
