# MHz S MA R 50
!   freq        S11       
0.050000  1.00034   -0.23
1.049900  1.00157   -3.83
2.049800  0.99967   -7.53
3.049700  0.99940  -11.16
4.049600  0.99884  -14.82
5.049500  0.99987  -18.47
6.049400  0.99957  -22.10
7.049300  0.99961  -25.82
8.049200  0.99911  -29.40
9.049100  0.99788  -33.04
10.049000  0.99780  -36.81
11.048900  0.99716  -40.50
12.048800  0.99317  -44.20
13.048700  0.99111  -47.82
14.048600  0.98961  -51.52
15.048500  0.98720  -55.25
16.048400  0.98301  -58.90
17.048300  0.97994  -62.56
18.048200  0.97523  -66.14
19.048100  0.96603  -69.84
20.048000  0.96150  -73.46
21.047900  0.95636  -77.01
22.047800  0.94702  -80.61
23.047700  0.93977  -84.17
24.047600  0.92833  -87.62
25.047500  0.91806  -91.13
26.047400  0.90744  -94.51
27.047300  0.89744  -97.90
28.047200  0.88510 -101.28
29.047100  0.87036 -104.51
30.047000  0.85796 -107.73
31.046900  0.84453 -110.82
32.046800  0.83031 -113.90
33.046700  0.81477 -116.99
34.046600  0.80069 -119.94
35.046500  0.78555 -122.85
36.046400  0.76956 -125.69
37.046300  0.75402 -128.43
38.046200  0.73940 -131.14
39.046100  0.72508 -133.87
40.046000  0.70825 -136.34
41.045900  0.69272 -138.84
42.045800  0.67856 -141.35
43.045700  0.66204 -143.60
44.045600  0.64800 -145.91
45.045500  0.63303 -148.18
46.045400  0.61870 -150.36
47.045300  0.60341 -152.47
48.045200  0.58921 -154.48
49.045100  0.57539 -156.39
50.045000  0.56093 -158.29
51.044900  0.54682 -160.07
52.044800  0.53428 -162.00
53.044700  0.52069 -163.65
54.044600  0.50914 -165.36
55.044500  0.49630 -166.76
56.044400  0.48464 -168.30
57.044300  0.47323 -169.82
58.044200  0.46157 -171.07
59.044100  0.44993 -172.43
60.044000  0.43965 -173.62
61.043900  0.43030 -174.75
62.043800  0.42089 -175.94
63.043700  0.41086 -177.01
64.043600  0.40138 -178.08
65.043500  0.39289 -178.99
66.043400  0.38460 -179.93
67.043300  0.37597  179.17
68.043200  0.36825  178.45
69.043100  0.36173  177.71
70.043000  0.35358  176.88
71.042900  0.34686  176.25
72.042800  0.34054  175.51
73.042700  0.33336  175.14
74.042600  0.32703  174.54
75.042500  0.32171  173.67
76.042400  0.31510  173.64
77.042300  0.30968  173.09
78.042200  0.30461  172.72
79.042100  0.29954  172.31
80.042000  0.29423  171.68
81.041900  0.28979  171.34
82.041800  0.28545  171.04
83.041700  0.28153  170.80
84.041600  0.27659  170.72
85.041500  0.27301  170.53
86.041400  0.27005  169.86
87.041300  0.26603  169.95
88.041200  0.26168  169.55
89.041100  0.25939  169.20
90.041000  0.25603  169.37
91.040900  0.25294  169.01
92.040800  0.24943  169.07
93.040700  0.24627  168.72
94.040600  0.24329  168.63
95.040500  0.24144  168.28
96.040400  0.23854  168.50
97.040300  0.23657  168.11
98.040200  0.23411  168.03
99.040100  0.23220  168.16
100.040000  0.22973  167.79
101.039900  0.22748  168.01
102.039800  0.22576  167.92
103.039700  0.22367  167.61
104.039600  0.22180  167.82
105.039500  0.21999  167.30
106.039400  0.21740  167.46
107.039300  0.21595  167.67
108.039200  0.21484  167.28
109.039100  0.21292  167.41
110.039000  0.21110  167.35
111.038900  0.20961  167.12
112.038800  0.20794  167.03
113.038700  0.20669  167.33
114.038600  0.20563  166.88
115.038500  0.20434  166.89
116.038400  0.20304  166.70
117.038300  0.20088  166.88
118.038200  0.19966  166.71
119.038100  0.19854  166.67
120.038000  0.19793  166.72
121.037900  0.19665  166.59
122.037800  0.19590  166.31
123.037700  0.19440  166.58
124.037600  0.19276  166.39
125.037500  0.19228  166.43
126.037400  0.19087  166.25
127.037300  0.19005  166.20
128.037200  0.18891  166.16
129.037100  0.18823  166.23
130.037000  0.18777  166.16
131.036900  0.18689  166.13
132.036800  0.18511  166.02
133.036700  0.18448  166.26
134.036600  0.18334  165.99
135.036500  0.18342  166.03
136.036400  0.18190  165.84
137.036300  0.18136  165.98
138.036200  0.18034  165.79
139.036100  0.17994  165.96
140.036000  0.18036  165.82
141.035900  0.17987  165.49
142.035800  0.17901  165.55
143.035700  0.17852  165.41
144.035600  0.17801  165.11
145.035500  0.17719  165.20
146.035400  0.17657  165.15
147.035300  0.17564  165.15
148.035200  0.17515  165.03
149.035100  0.17408  165.25
150.035000  0.17364  165.07
151.034900  0.17308  165.13
152.034800  0.17229  164.91
153.034700  0.17175  164.95
154.034600  0.17121  164.95
155.034500  0.17054  164.70
156.034400  0.16974  164.64
157.034300  0.16918  164.54
158.034200  0.16833  164.83
159.034100  0.16796  164.46
160.034000  0.16735  164.74
161.033900  0.16685  164.60
162.033800  0.16598  164.66
163.033700  0.16560  164.45
164.033600  0.16490  164.67
165.033500  0.16407  164.68
166.033400  0.16383  164.29
167.033300  0.16311  164.62
168.033200  0.16283  164.58
169.033100  0.16216  164.53
170.033000  0.16128  164.58
171.032900  0.16101  164.52
172.032800  0.16058  164.29
173.032700  0.15962  164.37
174.032600  0.15959  164.38
175.032500  0.15909  164.25
176.032400  0.15782  164.43
177.032300  0.15790  164.29
178.032200  0.15742  164.55
179.032100  0.15676  164.51
180.032000  0.15672  163.94
181.031900  0.15555  164.15
182.031800  0.15526  163.87
183.031700  0.15457  164.16
184.031600  0.15429  163.76
185.031500  0.15393  164.09
186.031400  0.15375  164.02
187.031300  0.15300  164.04
188.031200  0.15257  163.90
189.031100  0.15211  164.02
190.031000  0.15229  163.82
191.030900  0.15129  163.87
192.030800  0.15114  164.10
193.030700  0.15039  164.27
194.030600  0.15048  164.11
195.030500  0.15057  163.70
196.030400  0.14942  164.21
197.030300  0.14961  163.61
198.030200  0.14933  163.69
199.030100  0.14885  163.73
200.030000  0.14823  163.72
201.029900  0.14831  163.79
202.029800  0.14735  164.07
203.029700  0.14696  163.97
204.029600  0.14689  163.53
205.029500  0.14669  163.79
206.029400  0.14630  163.70
207.029300  0.14542  164.03
208.029200  0.14494  163.94
209.029100  0.14423  163.99
210.029000  0.14475  163.80
211.028900  0.14432  163.82
212.028800  0.14406  163.60
213.028700  0.14385  163.88
214.028600  0.14361  163.64
215.028500  0.14280  163.96
216.028400  0.14214  163.63
217.028300  0.14191  163.60
218.028200  0.14223  163.91
219.028100  0.14192  163.47
220.028000  0.14162  163.54
221.027900  0.14112  163.72
222.027800  0.14125  163.70
223.027700  0.14084  163.62
224.027600  0.14066  163.59
225.027500  0.13914  163.55
226.027400  0.13968  163.77
227.027300  0.13900  163.90
228.027200  0.13956  163.74
229.027100  0.13854  163.87
230.027000  0.13796  163.78
231.026900  0.13797  163.85
232.026800  0.13693  163.34
233.026700  0.13708  163.32
234.026600  0.13699  163.04
235.026500  0.13644  163.01
236.026400  0.13599  162.93
237.026300  0.13558  163.01
238.026200  0.13583  163.33
239.026100  0.13520  163.35
240.026000  0.13548  163.24
241.025900  0.13525  163.48
242.025800  0.13512  163.46
243.025700  0.13465  163.49
244.025600  0.13483  163.83
245.025500  0.13424  163.49
246.025400  0.13396  163.59
247.025300  0.13390  163.66
248.025200  0.13387  163.55
249.025100  0.13315  163.57
250.025000  0.13310  163.54
251.024900  0.13313  163.81
252.024800  0.13283  163.70
253.024700  0.13285  163.80
254.024600  0.13217  163.76
255.024500  0.13218  163.58
256.024400  0.13173  163.59
257.024300  0.13167  163.77
258.024200  0.13124  163.66
259.024100  0.13106  163.73
260.024000  0.13089  163.52
261.023900  0.13075  163.57
262.023800  0.12983  163.66
263.023700  0.12980  163.63
264.023600  0.12993  163.82
265.023500  0.12957  163.55
266.023400  0.12943  163.77
267.023300  0.12896  163.64
268.023200  0.12923  163.53
269.023100  0.12887  163.70
270.023000  0.12825  163.73
271.022900  0.12805  163.47
272.022800  0.12838  163.71
273.022700  0.12837  163.61
274.022600  0.12761  163.77
275.022500  0.12764  163.76
276.022400  0.12722  163.91
277.022300  0.12709  163.73
278.022200  0.12699  163.48
279.022100  0.12650  163.66
280.022000  0.12674  163.61
281.021900  0.12610  163.72
282.021800  0.12648  163.57
283.021700  0.12595  163.72
284.021600  0.12553  163.35
285.021500  0.12535  163.40
286.021400  0.12491  163.39
287.021300  0.12496  163.40
288.021200  0.12497  163.88
289.021100  0.12421  163.44
290.021000  0.12449  163.50
291.020900  0.12428  163.72
292.020800  0.12352  163.43
293.020700  0.12343  163.16
294.020600  0.12357  163.36
295.020500  0.12286  163.19
296.020400  0.12288  163.08
297.020300  0.12295  162.95
298.020200  0.12259  162.95
299.020100  0.12235  163.11
300.020000  0.12210  163.11
301.019900  0.12191  162.99
302.019800  0.12200  163.21
303.019700  0.12175  163.19
304.019600  0.12213  163.13
305.019500  0.12145  162.99
306.019400  0.12096  162.97
307.019300  0.12153  162.94
308.019200  0.12120  162.93
309.019100  0.12084  163.18
310.019000  0.12109  163.20
311.018900  0.12074  163.12
312.018800  0.12046  162.98
313.018700  0.12041  163.08
314.018600  0.12011  162.95
315.018500  0.11992  162.93
316.018400  0.11979  163.04
317.018300  0.11974  163.09
318.018200  0.11959  163.21
319.018100  0.11955  163.28
320.018000  0.11919  163.05
321.017900  0.11895  163.20
322.017800  0.11899  163.02
323.017700  0.11878  163.24
324.017600  0.11842  163.23
325.017500  0.11816  163.14
326.017400  0.11823  163.29
327.017300  0.11824  163.27
328.017200  0.11802  163.11
329.017100  0.11793  163.26
330.017000  0.11763  163.06
331.016900  0.11769  163.15
332.016800  0.11766  163.24
333.016700  0.11756  163.19
334.016600  0.11727  163.36
335.016500  0.11709  163.30
336.016400  0.11671  162.82
337.016300  0.11695  163.17
338.016200  0.11695  163.31
339.016100  0.11688  163.40
340.016000  0.11661  163.28
341.015900  0.11621  163.48
342.015800  0.11625  163.52
343.015700  0.11591  163.25
344.015600  0.11575  163.40
345.015500  0.11620  163.57
346.015400  0.11585  163.73
347.015300  0.11572  163.53
348.015200  0.11583  163.79
349.015100  0.11532  163.81
350.015000  0.11488  163.47
351.014900  0.11555  163.77
352.014800  0.11568  163.96
353.014700  0.11548  163.85
354.014600  0.11533  163.99
355.014500  0.11505  163.82
356.014400  0.11477  163.80
357.014300  0.11489  164.13
358.014200  0.11476  163.98
359.014100  0.11438  163.98
360.014000  0.11412  164.00
361.013900  0.11361  163.78
362.013800  0.11425  163.39
363.013700  0.11416  163.40
364.013600  0.11378  163.32
365.013500  0.11365  163.34
366.013400  0.11370  163.24
367.013300  0.11353  163.27
368.013200  0.11333  163.43
369.013100  0.11321  163.72
370.013000  0.11368  163.59
371.012900  0.11342  163.54
372.012800  0.11282  163.65
373.012700  0.11252  163.70
374.012600  0.11241  163.83
375.012500  0.11259  163.75
376.012400  0.11314  164.21
377.012300  0.11197  163.84
378.012200  0.11249  164.25
379.012100  0.11221  164.45
380.012000  0.11195  164.02
381.011900  0.11234  164.37
382.011800  0.11196  164.18
383.011700  0.11159  164.32
384.011600  0.11173  164.71
385.011500  0.11192  164.76
386.011400  0.11131  164.36
387.011300  0.11136  164.24
388.011200  0.11156  164.30
389.011100  0.11130  164.22
390.011000  0.11122  164.70
391.010900  0.11152  164.43
392.010800  0.11137  164.61
393.010700  0.11085  164.79
394.010600  0.11088  164.82
395.010500  0.11069  164.65
396.010400  0.11084  164.79
397.010300  0.11061  164.51
398.010200  0.11051  164.52
399.010100  0.11016  164.91
400.010000  0.11028  164.84
401.009900  0.11027  164.54
402.009800  0.11038  164.71
403.009700  0.10974  164.78
404.009600  0.11031  165.07
405.009500  0.11008  164.94
406.009400  0.10969  164.94
407.009300  0.10959  164.69
408.009200  0.10944  164.84
409.009100  0.10985  164.84
410.009000  0.10967  164.74
411.008900  0.10955  164.84
412.008800  0.10888  165.00
413.008700  0.10958  165.01
414.008600  0.10968  164.85
415.008500  0.10943  165.20
416.008400  0.10849  164.94
417.008300  0.10908  164.71
418.008200  0.10902  164.79
419.008100  0.10952  164.87
420.008000  0.10956  164.63
421.007900  0.10911  164.63
422.007800  0.10915  165.25
423.007700  0.10863  164.85
424.007600  0.10950  165.12
425.007500  0.10899  164.93
426.007400  0.10936  164.97
427.007300  0.10927  164.96
428.007200  0.10945  165.07
429.007100  0.10900  165.28
430.007000  0.10838  164.75
431.006900  0.10862  164.62
432.006800  0.10823  165.17
433.006700  0.10887  165.08
434.006600  0.10826  164.74
435.006500  0.10809  164.77
436.006400  0.10828  164.86
437.006300  0.10855  164.79
438.006200  0.10872  165.11
439.006100  0.10737  165.04
440.006000  0.10822  165.16
441.005900  0.10829  165.00
442.005800  0.10790  165.25
443.005700  0.10781  165.04
444.005600  0.10752  165.42
445.005500  0.10801  165.25
446.005400  0.10755  165.28
447.005300  0.10773  165.32
448.005200  0.10788  165.10
449.005100  0.10689  164.97
450.005000  0.10726  165.29
451.004900  0.10740  165.30
452.004800  0.10753  164.90
453.004700  0.10677  165.14
454.004600  0.10648  165.39
455.004500  0.10653  165.42
456.004400  0.10674  165.35
457.004300  0.10711  165.37
458.004200  0.10635  165.76
459.004100  0.10662  165.26
460.004000  0.10686  165.35
461.003900  0.10647  165.43
462.003800  0.10679  165.47
463.003700  0.10689  165.34
464.003600  0.10619  165.06
465.003500  0.10547  165.15
466.003400  0.10593  165.09
467.003300  0.10500  164.97
468.003200  0.10592  164.92
469.003100  0.10581  164.95
470.003000  0.10627  164.89
471.002900  0.10612  164.89
472.002800  0.10605  165.30
473.002700  0.10604  165.34
474.002600  0.10644  165.40
475.002500  0.10516  165.78
476.002400  0.10536  165.35
477.002300  0.10565  165.67
478.002200  0.10538  165.53
479.002100  0.10524  165.74
480.002000  0.10506  165.75
481.001900  0.10553  165.38
482.001800  0.10482  165.79
483.001700  0.10534  166.17
484.001600  0.10476  165.64
485.001500  0.10527  165.46
486.001400  0.10496  165.79
487.001300  0.10512  165.65
488.001200  0.10455  165.96
489.001100  0.10438  166.05
490.001000  0.10469  165.89
491.000900  0.10503  166.14
492.000800  0.10404  166.32
493.000700  0.10471  166.09
494.000600  0.10468  166.29
495.000500  0.10438  165.89
496.000400  0.10422  165.82
497.000300  0.10453  166.44
498.000200  0.10345  166.51
499.000100  0.10450  166.33
500.000000  0.10442  166.09
