# MHz S MA R 50
!   freq        S11       
0.050000  1.00067   -0.12
1.049900  1.00105   -1.82
2.049800  1.00073   -3.51
3.049700  1.00121   -5.23
4.049600  1.00011   -6.84
5.049500  0.99920   -8.55
6.049400  0.99895  -10.18
7.049300  1.00043  -11.94
8.049200  1.00136  -13.58
9.049100  1.00071  -15.28
10.049000  1.00150  -16.97
11.048900  1.00185  -18.61
12.048800  1.00088  -20.28
13.048700  1.00024  -21.88
14.048600  1.00088  -23.57
15.048500  1.00189  -25.25
16.048400  1.00249  -26.88
17.048300  1.00292  -28.53
18.048200  1.00109  -30.06
19.048100  1.00238  -31.74
20.048000  1.00222  -33.37
21.047900  1.00234  -34.92
22.047800  1.00304  -36.58
23.047700  1.00462  -38.12
24.047600  1.00255  -39.73
25.047500  1.00462  -41.34
26.047400  1.00412  -42.81
27.047300  1.00284  -44.38
28.047200  1.00444  -45.93
29.047100  1.00417  -47.46
30.047000  1.00445  -48.93
31.046900  1.00504  -50.40
32.046800  1.00518  -51.95
33.046700  1.00572  -53.57
34.046600  1.00604  -55.01
35.046500  1.00436  -56.44
36.046400  1.00623  -57.91
37.046300  1.00567  -59.44
38.046200  1.00566  -60.78
39.046100  1.00631  -62.32
40.046000  1.00720  -63.68
41.045900  1.00319  -65.04
42.045800  1.00517  -66.43
43.045700  1.00482  -67.80
44.045600  1.00579  -69.17
45.045500  1.00712  -70.51
46.045400  1.00583  -71.87
47.045300  1.00488  -73.25
48.045200  1.00615  -74.59
49.045100  1.00698  -75.80
50.045000  1.00693  -77.19
51.044900  1.00569  -78.46
52.044800  1.00634  -79.76
53.044700  1.00697  -81.01
54.044600  1.00832  -82.33
55.044500  1.00687  -83.53
56.044400  1.00629  -84.73
57.044300  1.00752  -86.02
58.044200  1.00714  -87.25
59.044100  1.00827  -88.45
60.044000  1.00759  -89.59
61.043900  1.00677  -90.75
62.043800  1.00748  -91.83
63.043700  1.00605  -93.05
64.043600  1.00733  -94.23
65.043500  1.00736  -95.35
66.043400  1.00729  -96.45
67.043300  1.00681  -97.56
68.043200  1.00701  -98.72
69.043100  1.00705  -99.68
70.043000  1.00728 -100.72
71.042900  1.00745 -101.85
72.042800  1.00625 -102.86
73.042700  1.00670 -104.07
74.042600  1.00654 -104.96
75.042500  1.00763 -105.98
76.042400  1.00816 -106.93
77.042300  1.00755 -108.02
78.042200  1.00631 -108.98
79.042100  1.00640 -109.93
80.042000  1.00641 -110.98
81.041900  1.00660 -111.93
82.041800  1.00649 -112.77
83.041700  1.00561 -113.79
84.041600  1.00527 -114.76
85.041500  1.00562 -115.67
86.041400  1.00530 -116.63
87.041300  1.00520 -117.55
88.041200  1.00343 -118.48
89.041100  1.00225 -119.31
90.041000  1.00454 -120.21
91.040900  1.00334 -121.07
92.040800  1.00366 -121.95
93.040700  1.00387 -122.88
94.040600  1.00192 -123.74
95.040500  1.00285 -124.60
96.040400  1.00302 -125.51
97.040300  1.00132 -126.32
98.040200  1.00238 -127.11
99.040100  1.00327 -128.01
100.040000  1.00435 -128.70
101.039900  1.00128 -129.57
102.039800  1.00125 -130.34
103.039700  1.00162 -131.19
104.039600  1.00164 -132.05
105.039500  1.00132 -132.73
106.039400  0.99986 -133.51
107.039300  0.99918 -134.33
108.039200  1.00042 -135.11
109.039100  0.99993 -135.84
110.039000  0.99850 -136.69
111.038900  0.99990 -137.36
112.038800  0.99898 -138.15
113.038700  0.99746 -138.86
114.038600  0.99765 -139.60
115.038500  0.99805 -140.28
116.038400  0.99654 -141.12
117.038300  0.99539 -141.76
118.038200  0.99378 -142.45
119.038100  0.99690 -143.22
120.038000  0.99840 -143.87
121.037900  0.99433 -144.63
122.037800  0.99322 -145.28
123.037700  0.99297 -146.11
124.037600  0.99287 -146.59
125.037500  0.99198 -147.37
126.037400  0.99169 -147.98
127.037300  0.99274 -148.58
128.037200  0.99114 -149.33
129.037100  0.99069 -149.93
130.037000  0.99112 -150.67
131.036900  0.98894 -151.19
132.036800  0.98866 -151.86
133.036700  0.98881 -152.53
134.036600  0.98762 -153.14
135.036500  0.98618 -153.72
136.036400  0.98521 -154.36
137.036300  0.98546 -154.91
138.036200  0.98690 -155.53
139.036100  0.98457 -156.02
140.036000  0.98315 -156.69
141.035900  0.98358 -157.35
142.035800  0.98223 -157.95
143.035700  0.98271 -158.53
144.035600  0.98274 -159.16
145.035500  0.98226 -159.76
146.035400  0.98023 -160.28
147.035300  0.98102 -160.89
148.035200  0.98005 -161.42
149.035100  0.98073 -161.97
150.035000  0.97946 -162.55
151.034900  0.97893 -163.11
152.034800  0.97841 -163.68
153.034700  0.97818 -164.21
154.034600  0.97747 -164.80
155.034500  0.97715 -165.30
156.034400  0.97802 -165.91
157.034300  0.97702 -166.37
158.034200  0.97551 -166.91
159.034100  0.97523 -167.55
160.034000  0.97546 -167.98
161.033900  0.97422 -168.56
162.033800  0.97397 -169.02
163.033700  0.97371 -169.59
164.033600  0.97441 -170.04
165.033500  0.97194 -170.64
166.033400  0.97264 -171.09
167.033300  0.97244 -171.58
168.033200  0.97150 -172.08
169.033100  0.97153 -172.61
170.033000  0.97100 -173.10
171.032900  0.96987 -173.55
172.032800  0.96917 -174.05
173.032700  0.96946 -174.59
174.032600  0.96899 -175.15
175.032500  0.96744 -175.49
176.032400  0.96824 -176.01
177.032300  0.96754 -176.54
178.032200  0.96618 -176.96
179.032100  0.96692 -177.52
180.032000  0.96600 -177.91
181.031900  0.96550 -178.33
182.031800  0.96495 -178.82
183.031700  0.96499 -179.30
184.031600  0.96518 -179.81
185.031500  0.96343  179.83
186.031400  0.96318  179.36
187.031300  0.96245  178.91
188.031200  0.96323  178.41
189.031100  0.96213  178.00
190.031000  0.96167  177.55
191.030900  0.96269  177.07
192.030800  0.96133  176.68
193.030700  0.96042  176.23
194.030600  0.96055  175.77
195.030500  0.95951  175.38
196.030400  0.95945  175.00
197.030300  0.95900  174.49
198.030200  0.95873  174.02
199.030100  0.95783  173.62
200.030000  0.95715  173.26
201.029900  0.95783  172.89
202.029800  0.95730  172.46
203.029700  0.95661  171.95
204.029600  0.95616  171.54
205.029500  0.95463  171.14
206.029400  0.95466  170.79
207.029300  0.95506  170.26
208.029200  0.95311  169.93
209.029100  0.95441  169.54
210.029000  0.95208  169.12
211.028900  0.95254  168.76
212.028800  0.95223  168.37
213.028700  0.95181  167.95
214.028600  0.95125  167.60
215.028500  0.95028  167.24
216.028400  0.95041  166.76
217.028300  0.94951  166.37
218.028200  0.94895  165.96
219.028100  0.94797  165.63
220.028000  0.94776  165.21
221.027900  0.94803  164.86
222.027800  0.94654  164.47
223.027700  0.94569  164.08
224.027600  0.94585  163.74
225.027500  0.94514  163.35
226.027400  0.94583  163.00
227.027300  0.94423  162.67
228.027200  0.94426  162.23
229.027100  0.94301  161.86
230.027000  0.94303  161.51
231.026900  0.94329  161.16
232.026800  0.94298  160.76
233.026700  0.94159  160.38
234.026600  0.94083  159.99
235.026500  0.94078  159.66
236.026400  0.94088  159.30
237.026300  0.94093  158.93
238.026200  0.94002  158.61
239.026100  0.94015  158.29
240.026000  0.94012  157.86
241.025900  0.93909  157.54
242.025800  0.93679  157.26
243.025700  0.93686  156.90
244.025600  0.93775  156.49
245.025500  0.93620  156.15
246.025400  0.93503  155.79
247.025300  0.93569  155.57
248.025200  0.93423  155.11
249.025100  0.93319  154.82
250.025000  0.93375  154.50
251.024900  0.93466  154.06
252.024800  0.93244  153.87
253.024700  0.93159  153.47
254.024600  0.93156  153.18
255.024500  0.93072  152.87
256.024400  0.93062  152.44
257.024300  0.92962  152.15
258.024200  0.93155  151.86
259.024100  0.93027  151.51
260.024000  0.92810  151.15
261.023900  0.92938  150.82
262.023800  0.92786  150.56
263.023700  0.92742  150.25
264.023600  0.92615  149.88
265.023500  0.92746  149.56
266.023400  0.92665  149.30
267.023300  0.92599  148.99
268.023200  0.92568  148.63
269.023100  0.92587  148.30
270.023000  0.92475  148.03
271.022900  0.92316  147.71
272.022800  0.92429  147.39
273.022700  0.92378  147.02
274.022600  0.92186  146.77
275.022500  0.92263  146.43
276.022400  0.92239  146.13
277.022300  0.92001  145.91
278.022200  0.92011  145.59
279.022100  0.91927  145.22
280.022000  0.92052  144.92
281.021900  0.91955  144.65
282.021800  0.91924  144.37
283.021700  0.91905  144.06
284.021600  0.91997  143.74
285.021500  0.91839  143.49
286.021400  0.91706  143.08
287.021300  0.91734  142.83
288.021200  0.91631  142.78
289.021100  0.91668  142.26
290.021000  0.91577  141.99
291.020900  0.91518  141.71
292.020800  0.91514  141.40
293.020700  0.91431  141.14
294.020600  0.91311  140.86
295.020500  0.91315  140.48
296.020400  0.91228  140.24
297.020300  0.91346  139.98
298.020200  0.91267  139.68
299.020100  0.91103  139.45
300.020000  0.91210  139.15
301.019900  0.91001  138.85
302.019800  0.91140  138.58
303.019700  0.90949  138.21
304.019600  0.91031  138.03
305.019500  0.91055  137.72
306.019400  0.90891  137.44
307.019300  0.90841  137.27
308.019200  0.90732  136.93
309.019100  0.90731  136.66
310.019000  0.90669  136.40
311.018900  0.90580  136.13
312.018800  0.90580  135.92
313.018700  0.90620  135.54
314.018600  0.90563  135.20
315.018500  0.90559  134.95
316.018400  0.90402  134.70
317.018300  0.90494  134.40
318.018200  0.90366  134.15
319.018100  0.90397  133.96
320.018000  0.90416  133.69
321.017900  0.90244  133.44
322.017800  0.90140  133.14
323.017700  0.90171  132.93
324.017600  0.89987  132.66
325.017500  0.90032  132.35
326.017400  0.89978  132.13
327.017300  0.89892  131.85
328.017200  0.89860  131.58
329.017100  0.89851  131.36
330.017000  0.89892  131.07
331.016900  0.89840  130.86
332.016800  0.89799  130.61
333.016700  0.89642  130.36
334.016600  0.89642  130.07
335.016500  0.89584  129.92
336.016400  0.89612  129.53
337.016300  0.89533  129.29
338.016200  0.89542  129.08
339.016100  0.89488  128.85
340.016000  0.89442  128.55
341.015900  0.89301  128.28
342.015800  0.89227  128.12
343.015700  0.89323  127.85
344.015600  0.89330  127.61
345.015500  0.89132  127.45
346.015400  0.89130  127.12
347.015300  0.89152  126.82
348.015200  0.88916  126.72
349.015100  0.89018  126.45
350.015000  0.88947  126.12
351.014900  0.88920  125.97
352.014800  0.88812  125.73
353.014700  0.88798  125.43
354.014600  0.88742  125.29
355.014500  0.88656  125.06
356.014400  0.88648  124.73
357.014300  0.88661  124.47
358.014200  0.88615  124.27
359.014100  0.88544  124.03
360.014000  0.88361  123.58
361.013900  0.88548  123.46
362.013800  0.88498  123.33
363.013700  0.88470  123.02
364.013600  0.88549  122.74
365.013500  0.88381  122.53
366.013400  0.88397  122.36
367.013300  0.88458  122.10
368.013200  0.88322  121.88
369.013100  0.88332  121.65
370.013000  0.88224  121.45
371.012900  0.88175  121.21
372.012800  0.88113  120.98
373.012700  0.88123  120.74
374.012600  0.88007  120.49
375.012500  0.88062  120.28
376.012400  0.87960  120.14
377.012300  0.87858  119.86
378.012200  0.87720  119.68
379.012100  0.87811  119.50
380.012000  0.87781  119.18
381.011900  0.87752  118.97
382.011800  0.87644  118.75
383.011700  0.87627  118.54
384.011600  0.87370  118.26
385.011500  0.87428  118.17
386.011400  0.87445  117.85
387.011300  0.87431  117.70
388.011200  0.87404  117.38
389.011100  0.87354  117.26
390.011000  0.87302  117.02
391.010900  0.87324  116.79
392.010800  0.87200  116.60
393.010700  0.87089  116.38
394.010600  0.87027  116.10
395.010500  0.87126  115.95
396.010400  0.87053  115.76
397.010300  0.87200  115.50
398.010200  0.87010  115.28
399.010100  0.86958  115.06
400.010000  0.86911  114.95
401.009900  0.86939  114.65
402.009800  0.86886  114.47
403.009700  0.86832  114.23
404.009600  0.86760  114.05
405.009500  0.86746  113.88
406.009400  0.86717  113.62
407.009300  0.86796  113.32
408.009200  0.86582  113.19
409.009100  0.86630  113.04
410.009000  0.86508  112.82
411.008900  0.86482  112.51
412.008800  0.86539  112.37
413.008700  0.86515  112.17
414.008600  0.86491  111.89
415.008500  0.86390  111.81
416.008400  0.86337  111.49
417.008300  0.86283  111.27
418.008200  0.86281  111.11
419.008100  0.86241  110.94
420.008000  0.86185  110.72
421.007900  0.86232  110.55
422.007800  0.86075  110.29
423.007700  0.86167  110.10
424.007600  0.86094  109.95
425.007500  0.86132  109.70
426.007400  0.86043  109.50
427.007300  0.85993  109.32
428.007200  0.85940  109.14
429.007100  0.85780  108.90
430.007000  0.85799  108.69
431.006900  0.85869  108.42
432.006800  0.85750  108.28
433.006700  0.85798  108.09
434.006600  0.85800  107.90
435.006500  0.85701  107.60
436.006400  0.85815  107.49
437.006300  0.85712  107.31
438.006200  0.85673  107.19
439.006100  0.85735  106.90
440.006000  0.85684  106.68
441.005900  0.85488  106.54
442.005800  0.85477  106.39
443.005700  0.85584  106.10
444.005600  0.85455  106.02
445.005500  0.85470  105.87
446.005400  0.85445  105.58
447.005300  0.85271  105.37
448.005200  0.85348  105.19
449.005100  0.85328  104.98
450.005000  0.85297  104.82
451.004900  0.85208  104.55
452.004800  0.85386  104.48
453.004700  0.85143  104.27
454.004600  0.85065  104.12
455.004500  0.85090  103.85
456.004400  0.85198  103.78
457.004300  0.85168  103.59
458.004200  0.85055  103.35
459.004100  0.85122  103.12
460.004000  0.85091  102.99
461.003900  0.85105  102.75
462.003800  0.84937  102.68
463.003700  0.85008  102.44
464.003600  0.85097  102.23
465.003500  0.85109  102.08
466.003400  0.85107  101.87
467.003300  0.85155  101.70
468.003200  0.85119  101.60
469.003100  0.85054  101.35
470.003000  0.85147  101.17
471.002900  0.84992  101.01
472.002800  0.84845  100.83
473.002700  0.84862  100.62
474.002600  0.84861  100.42
475.002500  0.84709  100.17
476.002400  0.84658  100.09
477.002300  0.84874   99.91
478.002200  0.84612   99.72
479.002100  0.84594   99.54
480.002000  0.84715   99.37
481.001900  0.84638   99.13
482.001800  0.84496   98.95
483.001700  0.84370   98.85
484.001600  0.84640   98.58
485.001500  0.84581   98.42
486.001400  0.84314   98.35
487.001300  0.84520   98.23
488.001200  0.84337   97.94
489.001100  0.84276   97.77
490.001000  0.84266   97.57
491.000900  0.84345   97.48
492.000800  0.84344   97.31
493.000700  0.84219   97.17
494.000600  0.84101   97.00
495.000500  0.84184   96.72
496.000400  0.84283   96.57
497.000300  0.84242   96.46
498.000200  0.84090   96.26
499.000100  0.84183   96.14
500.000000  0.84123   95.98
