# MHz S MA R 50
!   freq        S11       
0.050000  0.99966   -0.22
1.049900  0.99919   -3.75
2.049800  0.99141   -7.33
3.049700  0.98356  -10.89
4.049600  0.96899  -14.29
5.049500  0.95430  -17.55
6.049400  0.93596  -20.71
7.049300  0.91685  -23.91
8.049200  0.89526  -26.76
9.049100  0.87205  -29.52
10.049000  0.84937  -32.26
11.048900  0.82531  -34.74
12.048800  0.80220  -37.05
13.048700  0.77774  -39.28
14.048600  0.75366  -41.39
15.048500  0.73162  -43.37
16.048400  0.70943  -45.20
17.048300  0.68916  -47.05
18.048200  0.66718  -48.55
19.048100  0.64720  -50.13
20.048000  0.62811  -51.61
21.047900  0.60969  -52.97
22.047800  0.59112  -54.24
23.047700  0.57501  -55.48
24.047600  0.55712  -56.60
25.047500  0.54162  -57.64
26.047400  0.52794  -58.63
27.047300  0.51313  -59.64
28.047200  0.49933  -60.52
29.047100  0.48576  -61.43
30.047000  0.47287  -62.22
31.046900  0.46139  -63.03
32.046800  0.45009  -63.82
33.046700  0.43853  -64.53
34.046600  0.42700  -65.02
35.046500  0.41671  -65.61
36.046400  0.40748  -66.44
37.046300  0.39894  -66.97
38.046200  0.38947  -67.53
39.046100  0.38153  -68.16
40.046000  0.37217  -68.59
41.045900  0.36512  -69.05
42.045800  0.35738  -69.67
43.045700  0.34941  -70.05
44.045600  0.34205  -70.41
45.045500  0.33550  -70.83
46.045400  0.32886  -71.21
47.045300  0.32269  -71.83
48.045200  0.31568  -72.02
49.045100  0.31057  -72.49
50.045000  0.30510  -72.94
51.044900  0.29886  -73.21
52.044800  0.29305  -73.42
53.044700  0.28833  -73.71
54.044600  0.28363  -74.28
55.044500  0.27754  -74.22
56.044400  0.27337  -74.79
57.044300  0.26913  -75.10
58.044200  0.26500  -75.40
59.044100  0.26014  -75.33
60.044000  0.25604  -75.54
61.043900  0.25162  -75.84
62.043800  0.24839  -76.13
63.043700  0.24424  -76.65
64.043600  0.24068  -76.57
65.043500  0.23740  -76.89
66.043400  0.23383  -77.24
67.043300  0.23028  -77.46
68.043200  0.22684  -77.58
69.043100  0.22388  -77.79
70.043000  0.21986  -77.88
71.042900  0.21750  -78.12
72.042800  0.21502  -78.39
73.042700  0.21138  -78.56
74.042600  0.20920  -78.71
75.042500  0.20559  -79.06
76.042400  0.20364  -79.01
77.042300  0.20091  -79.22
78.042200  0.19769  -79.35
79.042100  0.19591  -79.50
80.042000  0.19309  -79.53
81.041900  0.19104  -79.78
82.041800  0.18825  -80.17
83.041700  0.18529  -80.33
84.041600  0.18310  -80.36
85.041500  0.18082  -80.56
86.041400  0.17911  -80.74
87.041300  0.17671  -80.93
88.041200  0.17439  -81.11
89.041100  0.17163  -81.39
90.041000  0.16988  -81.46
91.040900  0.16785  -81.71
92.040800  0.16579  -81.91
93.040700  0.16382  -81.99
94.040600  0.16236  -82.05
95.040500  0.16006  -82.24
96.040400  0.15828  -82.26
97.040300  0.15702  -82.54
98.040200  0.15538  -82.66
99.040100  0.15346  -82.74
100.040000  0.15206  -82.60
101.039900  0.15014  -82.84
102.039800  0.14911  -82.94
103.039700  0.14691  -82.99
104.039600  0.14592  -83.12
105.039500  0.14397  -83.11
106.039400  0.14251  -83.42
107.039300  0.14139  -83.44
108.039200  0.13998  -83.71
109.039100  0.13845  -83.61
110.039000  0.13666  -83.80
111.038900  0.13585  -83.85
112.038800  0.13463  -83.72
113.038700  0.13322  -84.14
114.038600  0.13193  -84.19
115.038500  0.13042  -84.17
116.038400  0.12921  -84.30
117.038300  0.12770  -84.35
118.038200  0.12666  -84.38
119.038100  0.12563  -84.48
120.038000  0.12453  -84.58
121.037900  0.12332  -84.64
122.037800  0.12196  -84.74
123.037700  0.12092  -84.94
124.037600  0.11959  -84.75
125.037500  0.11910  -84.94
126.037400  0.11782  -85.08
127.037300  0.11639  -85.04
128.037200  0.11585  -85.18
129.037100  0.11486  -85.21
130.037000  0.11339  -85.48
131.036900  0.11256  -85.35
132.036800  0.11144  -85.34
133.036700  0.11060  -85.42
134.036600  0.10959  -85.56
135.036500  0.10859  -85.70
136.036400  0.10802  -85.70
137.036300  0.10678  -85.67
138.036200  0.10609  -85.88
139.036100  0.10550  -85.83
140.036000  0.10561  -85.72
141.035900  0.10495  -85.65
142.035800  0.10347  -85.83
143.035700  0.10287  -85.97
144.035600  0.10177  -86.08
145.035500  0.10114  -86.16
146.035400  0.10027  -86.11
147.035300  0.09917  -86.20
148.035200  0.09851  -86.22
149.035100  0.09779  -86.27
150.035000  0.09677  -86.37
151.034900  0.09603  -86.39
152.034800  0.09531  -86.69
153.034700  0.09464  -86.69
154.034600  0.09374  -86.67
155.034500  0.09317  -86.60
156.034400  0.09239  -86.74
157.034300  0.09175  -86.78
158.034200  0.09113  -86.81
159.034100  0.09049  -86.82
160.034000  0.08977  -87.05
161.033900  0.08909  -87.14
162.033800  0.08834  -87.05
163.033700  0.08800  -87.02
164.033600  0.08704  -87.16
165.033500  0.08619  -87.34
166.033400  0.08597  -87.19
167.033300  0.08509  -87.30
168.033200  0.08438  -87.22
169.033100  0.08395  -87.28
170.033000  0.08324  -87.37
171.032900  0.08301  -87.36
172.032800  0.08205  -87.42
173.032700  0.08159  -87.48
174.032600  0.08095  -87.58
175.032500  0.08013  -87.67
176.032400  0.07989  -87.65
177.032300  0.07931  -87.84
178.032200  0.07873  -87.84
179.032100  0.07834  -87.73
180.032000  0.07748  -87.61
181.031900  0.07729  -87.30
182.031800  0.07704  -87.24
183.031700  0.07644  -87.44
184.031600  0.07565  -87.38
185.031500  0.07492  -87.57
186.031400  0.07434  -87.74
187.031300  0.07391  -87.54
188.031200  0.07342  -87.91
189.031100  0.07258  -88.03
190.031000  0.07233  -87.74
191.030900  0.07184  -88.16
192.030800  0.07121  -87.84
193.030700  0.07082  -88.22
194.030600  0.07044  -88.23
195.030500  0.06988  -88.23
196.030400  0.06947  -88.46
197.030300  0.06868  -88.39
198.030200  0.06843  -88.40
199.030100  0.06818  -88.30
200.030000  0.06762  -88.58
201.029900  0.06784  -88.13
202.029800  0.06661  -88.49
203.029700  0.06610  -88.54
204.029600  0.06589  -88.17
205.029500  0.06518  -88.42
206.029400  0.06499  -88.51
207.029300  0.06469  -88.45
208.029200  0.06391  -88.39
209.029100  0.06344  -88.39
210.029000  0.06340  -88.31
211.028900  0.06269  -88.38
212.028800  0.06273  -88.54
213.028700  0.06233  -88.46
214.028600  0.06219  -88.59
215.028500  0.06135  -88.63
216.028400  0.06071  -88.40
217.028300  0.06032  -88.78
218.028200  0.05987  -88.77
219.028100  0.05979  -88.62
220.028000  0.05990  -88.41
221.027900  0.05891  -88.38
222.027800  0.05906  -88.63
223.027700  0.05874  -88.46
224.027600  0.05816  -88.54
225.027500  0.05813  -88.20
226.027400  0.05736  -88.32
227.027300  0.05703  -88.38
228.027200  0.05705  -88.73
229.027100  0.05635  -88.43
230.027000  0.05534  -88.50
231.026900  0.05584  -88.62
232.026800  0.05422  -88.20
233.026700  0.05406  -88.34
234.026600  0.05355  -88.16
235.026500  0.05281  -88.24
236.026400  0.05293  -88.55
237.026300  0.05241  -88.35
238.026200  0.05205  -88.27
239.026100  0.05188  -88.36
240.026000  0.05175  -88.72
241.025900  0.05143  -88.58
242.025800  0.05118  -88.72
243.025700  0.05097  -88.61
244.025600  0.05057  -88.58
245.025500  0.05028  -88.72
246.025400  0.04992  -88.70
247.025300  0.04956  -88.68
248.025200  0.04951  -88.87
249.025100  0.04900  -88.55
250.025000  0.04902  -88.26
251.024900  0.04885  -87.94
252.024800  0.04822  -88.45
253.024700  0.04832  -87.91
254.024600  0.04763  -88.36
255.024500  0.04797  -87.89
256.024400  0.04698  -88.22
257.024300  0.04651  -88.40
258.024200  0.04658  -87.79
259.024100  0.04593  -88.34
260.024000  0.04539  -87.86
261.023900  0.04519  -88.31
262.023800  0.04552  -87.98
263.023700  0.04503  -87.90
264.023600  0.04467  -87.96
265.023500  0.04392  -88.43
266.023400  0.04376  -88.44
267.023300  0.04341  -88.23
268.023200  0.04317  -87.93
269.023100  0.04323  -88.36
270.023000  0.04257  -88.07
271.022900  0.04282  -88.35
272.022800  0.04244  -88.08
273.022700  0.04205  -88.19
274.022600  0.04157  -88.40
275.022500  0.04156  -87.12
276.022400  0.04230  -86.40
277.022300  0.04158  -86.97
278.022200  0.04115  -87.09
279.022100  0.04050  -86.86
280.022000  0.04059  -86.53
281.021900  0.04011  -86.70
282.021800  0.03998  -86.24
283.021700  0.03991  -85.59
284.021600  0.03921  -87.06
285.021500  0.03957  -86.16
286.021400  0.03881  -86.96
287.021300  0.03890  -85.97
288.021200  0.03873  -85.93
289.021100  0.03804  -86.36
290.021000  0.03773  -86.73
291.020900  0.03776  -85.77
292.020800  0.03735  -86.41
293.020700  0.03690  -86.84
294.020600  0.03673  -86.17
295.020500  0.03669  -84.84
296.020400  0.03641  -85.05
297.020300  0.03608  -85.08
298.020200  0.03545  -85.99
299.020100  0.03520  -85.64
300.020000  0.03515  -86.06
301.019900  0.03463  -86.01
302.019800  0.03426  -87.29
303.019700  0.03436  -85.11
304.019600  0.03404  -86.69
305.019500  0.03332  -86.80
306.019400  0.03356  -84.57
307.019300  0.03310  -86.56
308.019200  0.03302  -86.55
309.019100  0.03248  -86.60
310.019000  0.03258  -85.89
311.018900  0.03216  -85.51
312.018800  0.03150  -85.23
313.018700  0.03163  -86.50
314.018600  0.03125  -86.62
315.018500  0.03125  -85.16
316.018400  0.03095  -84.62
317.018300  0.03074  -86.87
318.018200  0.03065  -85.51
319.018100  0.03039  -85.37
320.018000  0.03025  -84.59
321.017900  0.03000  -84.43
322.017800  0.02962  -86.20
323.017700  0.02965  -85.50
324.017600  0.02906  -84.31
325.017500  0.02909  -84.05
326.017400  0.02897  -83.80
327.017300  0.02866  -84.11
328.017200  0.02811  -84.52
329.017100  0.02795  -84.99
330.017000  0.02750  -83.88
331.016900  0.02774  -85.42
332.016800  0.02753  -83.68
333.016700  0.02698  -84.10
334.016600  0.02723  -84.08
335.016500  0.02691  -84.04
336.016400  0.02598  -82.57
337.016300  0.02622  -83.01
338.016200  0.02595  -81.58
339.016100  0.02586  -83.06
340.016000  0.02597  -82.97
341.015900  0.02584  -83.35
342.015800  0.02578  -81.80
343.015700  0.02489  -80.36
344.015600  0.02476  -82.11
345.015500  0.02443  -81.54
346.015400  0.02486  -83.21
347.015300  0.02390  -80.35
348.015200  0.02457  -83.30
349.015100  0.02458  -81.09
350.015000  0.02323  -80.08
351.014900  0.02363  -81.29
352.014800  0.02368  -81.85
353.014700  0.02303  -81.50
354.014600  0.02293  -81.69
355.014500  0.02281  -81.37
356.014400  0.02276  -81.67
357.014300  0.02284  -80.35
358.014200  0.02241  -82.43
359.014100  0.02273  -81.28
360.014000  0.02229  -80.50
361.013900  0.02137  -79.81
362.013800  0.02166  -82.14
363.013700  0.02142  -81.64
364.013600  0.02122  -81.39
365.013500  0.02131  -80.80
366.013400  0.02069  -81.75
367.013300  0.02048  -80.80
368.013200  0.02067  -80.43
369.013100  0.02053  -80.47
370.013000  0.02006  -80.79
371.012900  0.01979  -80.82
372.012800  0.01966  -79.32
373.012700  0.01959  -79.46
374.012600  0.01911  -77.52
375.012500  0.01847  -77.36
376.012400  0.01892  -79.47
377.012300  0.01850  -76.94
378.012200  0.01860  -77.41
379.012100  0.01915  -80.13
380.012000  0.01826  -75.91
381.011900  0.01854  -78.36
382.011800  0.01831  -76.65
383.011700  0.01822  -77.04
384.011600  0.01846  -77.20
385.011500  0.01829  -78.77
386.011400  0.01739  -74.59
387.011300  0.01728  -76.37
388.011200  0.01746  -76.45
389.011100  0.01718  -76.01
390.011000  0.01746  -76.23
391.010900  0.01680  -75.09
392.010800  0.01690  -76.31
393.010700  0.01679  -74.99
394.010600  0.01629  -75.41
395.010500  0.01640  -74.61
396.010400  0.01616  -74.84
397.010300  0.01591  -74.84
398.010200  0.01587  -73.07
399.010100  0.01606  -73.25
400.010000  0.01545  -74.67
401.009900  0.01544  -73.85
402.009800  0.01468  -74.72
403.009700  0.01561  -74.26
404.009600  0.01504  -74.52
405.009500  0.01506  -71.17
406.009400  0.01455  -71.12
407.009300  0.01418  -69.86
408.009200  0.01427  -71.42
409.009100  0.01404  -69.11
410.009000  0.01355  -70.71
411.008900  0.01399  -67.89
412.008800  0.01417  -66.40
413.008700  0.01364  -69.79
414.008600  0.01355  -70.18
415.008500  0.01343  -70.29
416.008400  0.01326  -68.38
417.008300  0.01335  -65.85
418.008200  0.01313  -68.01
419.008100  0.01323  -66.08
420.008000  0.01294  -66.62
421.007900  0.01222  -66.48
422.007800  0.01278  -68.43
423.007700  0.01234  -62.59
424.007600  0.01212  -65.28
425.007500  0.01206  -63.34
426.007400  0.01188  -65.14
427.007300  0.01179  -63.85
428.007200  0.01175  -66.51
429.007100  0.01180  -62.62
430.007000  0.01120  -58.85
431.006900  0.01140  -62.31
432.006800  0.01187  -59.09
433.006700  0.01083  -60.12
434.006600  0.01080  -57.53
435.006500  0.01009  -56.53
436.006400  0.01095  -59.24
437.006300  0.01039  -60.19
438.006200  0.01112  -60.37
439.006100  0.01065  -55.16
440.006000  0.01045  -56.31
441.005900  0.01032  -56.46
442.005800  0.01042  -56.17
443.005700  0.00993  -55.43
444.005600  0.01056  -57.07
445.005500  0.00941  -56.18
446.005400  0.01000  -53.24
447.005300  0.01024  -52.47
448.005200  0.00975  -50.82
449.005100  0.00972  -50.41
450.005000  0.00919  -49.92
451.004900  0.00976  -49.98
452.004800  0.00911  -50.39
453.004700  0.00951  -46.25
454.004600  0.00960  -47.22
455.004500  0.00897  -49.27
456.004400  0.00853  -41.24
457.004300  0.00851  -44.08
458.004200  0.00919  -46.28
459.004100  0.00864  -44.05
460.004000  0.00867  -41.53
461.003900  0.00849  -39.49
462.003800  0.00857  -40.02
463.003700  0.00857  -39.93
464.003600  0.00845  -40.11
465.003500  0.00848  -36.55
466.003400  0.00865  -38.32
467.003300  0.00867  -36.67
468.003200  0.00819  -35.08
469.003100  0.00800  -33.14
470.003000  0.00787  -35.11
471.002900  0.00828  -33.60
472.002800  0.00797  -32.24
473.002700  0.00787  -31.20
474.002600  0.00810  -32.96
475.002500  0.00858  -32.30
476.002400  0.00778  -28.69
477.002300  0.00724  -25.16
478.002200  0.00741  -27.04
479.002100  0.00754  -26.16
480.002000  0.00823  -18.87
481.001900  0.00804  -21.10
482.001800  0.00809  -21.28
483.001700  0.00782  -22.36
484.001600  0.00793  -13.91
485.001500  0.00768  -14.40
486.001400  0.00811  -17.36
487.001300  0.00767  -12.49
488.001200  0.00782  -17.20
489.001100  0.00801  -15.66
490.001000  0.00769  -11.27
491.000900  0.00752  -15.78
492.000800  0.00776  -13.47
493.000700  0.00740  -15.53
494.000600  0.00774  -14.89
495.000500  0.00786  -11.14
496.000400  0.00791   -6.10
497.000300  0.00769  -10.08
498.000200  0.00801   -8.76
499.000100  0.00787   -1.72
500.000000  0.00770   -1.58
